time	V(in)	V(q)
Step Information: R=100µ  (Step: 1/41)
0.000000000000000e+00	0.000000e+00	0.000000e+00
9.999999824516700e-15	1.319469e-10	0.000000e+00
1.999999964903340e-14	2.638938e-10	2.998820e-17
3.999999929806680e-14	5.277875e-10	2.365740e-16
2.047999964061020e-11	2.702272e-07	7.637755e-11
8.191999856244081e-11	1.080909e-06	1.225804e-09
1.638399971248816e-10	2.161818e-06	4.923447e-09
3.276799942497632e-10	4.323635e-06	1.985791e-08
6.553599884995265e-10	8.647271e-06	8.078243e-08
1.310719976999053e-09	1.729454e-05	8.747298e-07
2.310719976999053e-09	3.048923e-05	3.910599e-06
3.310719976999053e-09	4.368392e-05	8.596241e-06
4.310719976999053e-09	5.687861e-05	1.523509e-05
5.310719976999052e-09	7.007330e-05	2.440597e-05
6.310719976999052e-09	8.326799e-05	3.654251e-05
7.310719976999052e-09	9.646267e-05	5.215270e-05
8.310719976999053e-09	1.096574e-04	7.183148e-05
9.310719976999053e-09	1.228521e-04	9.627573e-05
1.031071997699905e-08	1.360467e-04	1.263017e-04
1.131071997699905e-08	1.492414e-04	1.628654e-04
1.231071997699906e-08	1.624361e-04	2.070866e-04
1.331071997699906e-08	1.756308e-04	2.602770e-04
1.431071997699906e-08	1.888255e-04	3.239728e-04
1.531071997699906e-08	2.020202e-04	3.999734e-04
1.631071997699905e-08	2.152149e-04	4.903864e-04
1.731071997699905e-08	2.284096e-04	5.976805e-04
1.831071997699905e-08	2.416043e-04	7.247471e-04
1.931071997699905e-08	2.547989e-04	8.749728e-04
2.031071997699905e-08	2.679936e-04	1.052325e-03
2.131071997699905e-08	2.811883e-04	1.261449e-03
2.231071997699905e-08	2.943830e-04	1.507787e-03
2.331071997699905e-08	3.075777e-04	1.797714e-03
2.431071997699905e-08	3.207724e-04	2.138696e-03
2.531071997699905e-08	3.339671e-04	2.539476e-03
2.631071997699905e-08	3.471618e-04	3.010299e-03
2.731071997699904e-08	3.603565e-04	3.563160e-03
2.831071997699904e-08	3.735512e-04	4.212111e-03
2.931071997699904e-08	3.867458e-04	4.973610e-03
3.031071997699904e-08	3.999405e-04	5.866933e-03
3.131071997699904e-08	4.131352e-04	6.914657e-03
3.231071997699905e-08	4.263299e-04	8.143223e-03
3.331071997699905e-08	4.395246e-04	9.583602e-03
3.431071997699905e-08	4.527193e-04	1.127206e-02
3.531071997699905e-08	4.659140e-04	1.325108e-02
3.631071997699906e-08	4.791087e-04	1.557039e-02
3.731071997699906e-08	4.923033e-04	1.828824e-02
3.831071997699906e-08	5.054980e-04	2.147280e-02
3.931071997699906e-08	5.186927e-04	2.520392e-02
4.031071997699906e-08	5.318874e-04	2.957499e-02
4.131071997699907e-08	5.450821e-04	3.469532e-02
4.231071997699907e-08	5.582768e-04	4.069275e-02
4.331071997699907e-08	5.714715e-04	4.771666e-02
4.431071997699907e-08	5.846662e-04	5.594157e-02
4.531071997699908e-08	5.978608e-04	6.557104e-02
4.631071997699908e-08	6.110555e-04	7.684224e-02
4.731071997699908e-08	6.242502e-04	9.003083e-02
4.831071997699908e-08	6.374449e-04	1.054564e-01
4.931071997699909e-08	6.506396e-04	1.234877e-01
5.031071997699909e-08	6.638343e-04	1.445481e-01
5.131071997699909e-08	6.770290e-04	1.691194e-01
5.231071997699909e-08	6.902236e-04	1.977435e-01
5.331071997699910e-08	7.034183e-04	2.310186e-01
5.431071997699910e-08	7.166131e-04	2.695870e-01
5.531071997699910e-08	7.298078e-04	3.141070e-01
5.631071997699910e-08	7.430025e-04	3.651982e-01
5.731071997699910e-08	7.561971e-04	4.232165e-01
5.831071997699911e-08	7.693918e-04	4.882589e-01
5.931071997699911e-08	7.825865e-04	5.600463e-01
6.031071997699910e-08	7.957812e-04	6.371350e-01
6.131071997699910e-08	8.089759e-04	7.164196e-01
6.231071997699910e-08	8.221706e-04	7.929401e-01
6.331071997699909e-08	8.353653e-04	8.602954e-01
6.431071997699909e-08	8.485600e-04	9.127439e-01
6.531071997699908e-08	8.617546e-04	9.485157e-01
6.615116677274735e-08	8.728441e-04	9.665709e-01
6.691958475903847e-08	8.829831e-04	9.756678e-01
6.755046911907547e-08	8.913074e-04	9.797899e-01
6.819462422072119e-08	8.998069e-04	9.822285e-01
6.859282762313218e-08	9.050610e-04	9.831603e-01
6.899749396212984e-08	9.104005e-04	9.836725e-01
6.934712836218272e-08	9.150138e-04	9.839750e-01
6.968005244813655e-08	9.194066e-04	9.843090e-01
7.034590062004421e-08	9.281923e-04	9.848142e-01
7.134590062004420e-08	9.413870e-04	9.851877e-01
7.224720016482632e-08	9.532793e-04	9.853784e-01
7.324720016482632e-08	9.664740e-04	9.854824e-01
7.424720016482631e-08	9.796687e-04	9.855287e-01
7.524720016482631e-08	9.928633e-04	9.855458e-01
7.624720016482630e-08	1.006058e-03	9.855596e-01
7.724720016482630e-08	1.019253e-03	9.855719e-01
7.824720016482630e-08	1.032447e-03	9.855780e-01
7.924720016482629e-08	1.045642e-03	9.855811e-01
8.024720016482629e-08	1.058837e-03	9.855827e-01
8.124720016482628e-08	1.072031e-03	9.855837e-01
8.224720016482628e-08	1.085226e-03	9.855843e-01
8.324720016482627e-08	1.098421e-03	9.855847e-01
8.424720016482627e-08	1.111616e-03	9.855852e-01
8.524720016482627e-08	1.124810e-03	9.855855e-01
8.624720016482626e-08	1.138005e-03	9.855859e-01
8.824720016482625e-08	1.164394e-03	9.855865e-01
1.022472001648262e-07	1.349120e-03	9.855911e-01
1.002247200164820e-06	1.322425e-02	9.859323e-01
2.026247200164897e-06	2.673498e-02	9.864417e-01
3.050247200164974e-06	4.024460e-02	9.870805e-01
4.074247200164941e-06	5.375255e-02	9.878488e-01
5.098247200164584e-06	6.725828e-02	9.887470e-01
6.122247200164228e-06	8.076123e-02	9.897752e-01
7.146247200163871e-06	9.426083e-02	9.909338e-01
8.170247200163972e-06	1.077565e-01	9.922228e-01
9.194247200164483e-06	1.212478e-01	9.936425e-01
1.021824720016499e-05	1.347340e-01	9.951931e-01
1.124224720016550e-05	1.482146e-01	9.968747e-01
1.226624720016601e-05	1.616891e-01	9.986875e-01
1.329024720016653e-05	1.751570e-01	1.000632e+00
1.431424720016704e-05	1.886175e-01	1.002707e+00
1.533824720016741e-05	2.020703e-01	1.004914e+00
1.636224720016619e-05	2.155147e-01	1.007253e+00
1.738624720016496e-05	2.289501e-01	1.009724e+00
1.841024720016374e-05	2.423761e-01	1.012326e+00
1.943424720016251e-05	2.557921e-01	1.015061e+00
2.045824720016129e-05	2.691974e-01	1.017927e+00
2.148224720016007e-05	2.825917e-01	1.020926e+00
2.250624720015884e-05	2.959742e-01	1.024056e+00
2.353024720015762e-05	3.093445e-01	1.027319e+00
2.455424720015639e-05	3.227019e-01	1.030713e+00
2.557824720015517e-05	3.360460e-01	1.034240e+00
2.660224720015395e-05	3.493763e-01	1.037899e+00
2.762624720015272e-05	3.626920e-01	1.041690e+00
2.865024720015150e-05	3.759927e-01	1.045613e+00
2.967424720015027e-05	3.892779e-01	1.049668e+00
3.069824720014966e-05	4.025469e-01	1.053856e+00
3.172224720015191e-05	4.157993e-01	1.058175e+00
3.274624720015415e-05	4.290344e-01	1.062626e+00
3.377024720015640e-05	4.422519e-01	1.067209e+00
3.479424720015864e-05	4.554510e-01	1.071923e+00
3.581824720016089e-05	4.686312e-01	1.076769e+00
3.684224720016313e-05	4.817921e-01	1.081747e+00
3.786624720016538e-05	4.949329e-01	1.086856e+00
3.889024720016763e-05	5.080534e-01	1.092097e+00
3.991424720016987e-05	5.211527e-01	1.097469e+00
4.093824720017212e-05	5.342306e-01	1.102972e+00
4.196224720017436e-05	5.472863e-01	1.108606e+00
4.298624720017661e-05	5.603193e-01	1.114370e+00
4.401024720017885e-05	5.733292e-01	1.120266e+00
4.503424720018110e-05	5.863153e-01	1.126292e+00
4.605824720018334e-05	5.992771e-01	1.132448e+00
4.708224720018559e-05	6.122141e-01	1.138734e+00
4.810624720018783e-05	6.251258e-01	1.145150e+00
4.913024720019008e-05	6.380116e-01	1.151696e+00
5.015424720019232e-05	6.508710e-01	1.158372e+00
5.117824720019457e-05	6.637034e-01	1.165177e+00
5.220224720019681e-05	6.765084e-01	1.172111e+00
5.322624720019906e-05	6.892855e-01	1.179174e+00
5.425024720020131e-05	7.020339e-01	1.186366e+00
5.527424720020355e-05	7.147533e-01	1.193686e+00
5.629824720020580e-05	7.274430e-01	1.201134e+00
5.732224720020804e-05	7.401027e-01	1.208711e+00
5.834624720021029e-05	7.527317e-01	1.216415e+00
5.937024720021253e-05	7.653297e-01	1.224246e+00
6.039424720021478e-05	7.778959e-01	1.232205e+00
6.141824720021702e-05	7.904298e-01	1.240290e+00
6.244224720021926e-05	8.029311e-01	1.248502e+00
6.346624720022151e-05	8.153992e-01	1.256841e+00
6.449024720022375e-05	8.278335e-01	1.265305e+00
6.551424720022600e-05	8.402335e-01	1.273895e+00
6.653824720022824e-05	8.525987e-01	1.282611e+00
6.756224720023049e-05	8.649287e-01	1.291451e+00
6.858624720023273e-05	8.772228e-01	1.300416e+00
6.961024720023498e-05	8.894806e-01	1.309506e+00
7.063424720023722e-05	9.017016e-01	1.318720e+00
7.165824720023947e-05	9.138853e-01	1.328058e+00
7.268224720024171e-05	9.260311e-01	1.337518e+00
7.370624720024396e-05	9.381387e-01	1.347102e+00
7.473024720024621e-05	9.502073e-01	1.356809e+00
7.575424720024845e-05	9.622366e-01	1.366638e+00
7.677824720025070e-05	9.742262e-01	1.376589e+00
7.780224720025294e-05	9.861754e-01	1.386661e+00
7.882624720025519e-05	9.980837e-01	1.396855e+00
7.985024720025743e-05	1.009951e+00	1.407169e+00
8.087424720025968e-05	1.021776e+00	1.417603e+00
8.189824720026192e-05	1.033559e+00	1.428158e+00
8.292224720026417e-05	1.045299e+00	1.438832e+00
8.394624720026641e-05	1.056996e+00	1.449625e+00
8.497024720026866e-05	1.068649e+00	1.460537e+00
8.599424720027090e-05	1.080258e+00	1.471568e+00
8.701824720027315e-05	1.091822e+00	1.482716e+00
8.804224720027539e-05	1.103341e+00	1.493981e+00
8.906624720027764e-05	1.114814e+00	1.505364e+00
9.009024720027989e-05	1.126241e+00	1.516863e+00
9.111424720028213e-05	1.137622e+00	1.528478e+00
9.213824720028438e-05	1.148955e+00	1.540209e+00
9.316224720028662e-05	1.160241e+00	1.552055e+00
9.418624720028887e-05	1.171479e+00	1.564015e+00
9.521024720029111e-05	1.182668e+00	1.576090e+00
9.623424720029336e-05	1.193809e+00	1.588278e+00
9.725824720029560e-05	1.204900e+00	1.600580e+00
9.828224720029785e-05	1.215941e+00	1.612994e+00
9.930624720030009e-05	1.226932e+00	1.625521e+00
1.003302472003023e-04	1.237872e+00	1.638159e+00
1.013542472003046e-04	1.248760e+00	1.650909e+00
1.023782472003068e-04	1.259597e+00	1.663769e+00
1.034022472003091e-04	1.270382e+00	1.676740e+00
1.044262472003113e-04	1.281115e+00	1.689820e+00
1.054502472003136e-04	1.291794e+00	1.703009e+00
1.064742472003158e-04	1.302420e+00	1.716307e+00
1.074982472003181e-04	1.312991e+00	1.729713e+00
1.085222472003203e-04	1.323509e+00	1.743227e+00
1.095462472003225e-04	1.333972e+00	1.756847e+00
1.105702472003248e-04	1.344379e+00	1.770574e+00
1.115942472003270e-04	1.354731e+00	1.784407e+00
1.126182472003293e-04	1.365027e+00	1.798345e+00
1.136422472003315e-04	1.375266e+00	1.812388e+00
1.146662472003338e-04	1.385449e+00	1.826535e+00
1.156902472003360e-04	1.395573e+00	1.840786e+00
1.167142472003383e-04	1.405641e+00	1.855140e+00
1.177382472003405e-04	1.415650e+00	1.869596e+00
1.187622472003428e-04	1.425600e+00	1.884154e+00
1.197862472003450e-04	1.435492e+00	1.898813e+00
1.208102472003472e-04	1.445324e+00	1.913574e+00
1.218342472003495e-04	1.455096e+00	1.928434e+00
1.228582472003411e-04	1.464808e+00	1.943393e+00
1.238822472003294e-04	1.474459e+00	1.958452e+00
1.249062472003178e-04	1.484049e+00	1.973608e+00
1.259302472003062e-04	1.493578e+00	1.988862e+00
1.269542472002945e-04	1.503045e+00	2.004214e+00
1.279782472002829e-04	1.512450e+00	2.019661e+00
1.290022472002713e-04	1.521792e+00	2.035204e+00
1.300262472002596e-04	1.531071e+00	2.050843e+00
1.310502472002480e-04	1.540287e+00	2.066576e+00
1.320742472002364e-04	1.549439e+00	2.082402e+00
1.330982472002247e-04	1.558527e+00	2.098322e+00
1.341222472002131e-04	1.567550e+00	2.114335e+00
1.351462472002015e-04	1.576509e+00	2.130439e+00
1.361702472001898e-04	1.585402e+00	2.146634e+00
1.371942472001782e-04	1.594229e+00	2.162920e+00
1.382182472001666e-04	1.602991e+00	2.179296e+00
1.392422472001549e-04	1.611686e+00	2.195760e+00
1.402662472001433e-04	1.620315e+00	2.212314e+00
1.412902472001317e-04	1.628876e+00	2.228955e+00
1.423142472001200e-04	1.637370e+00	2.245683e+00
1.433382472001084e-04	1.645797e+00	2.262498e+00
1.443622472000968e-04	1.654155e+00	2.279399e+00
1.453862472000851e-04	1.662444e+00	2.296385e+00
1.464102472000735e-04	1.670665e+00	2.313455e+00
1.474342472000619e-04	1.678817e+00	2.330608e+00
1.484582472000502e-04	1.686899e+00	2.347845e+00
1.494822472000386e-04	1.694911e+00	2.365164e+00
1.505062472000270e-04	1.702853e+00	2.382564e+00
1.515302472000153e-04	1.710725e+00	2.400046e+00
1.525542472000037e-04	1.718526e+00	2.417607e+00
1.535782471999921e-04	1.726256e+00	2.435248e+00
1.546022471999805e-04	1.733914e+00	2.452967e+00
1.556262471999688e-04	1.741500e+00	2.470764e+00
1.566502471999572e-04	1.749015e+00	2.488639e+00
1.576742471999456e-04	1.756457e+00	2.506590e+00
1.586982471999339e-04	1.763826e+00	2.524617e+00
1.597222471999223e-04	1.771122e+00	2.542718e+00
1.607462471999107e-04	1.778345e+00	2.560894e+00
1.617702471998990e-04	1.785494e+00	2.579144e+00
1.627942471998874e-04	1.792570e+00	2.597466e+00
1.638182471998758e-04	1.799571e+00	2.615860e+00
1.648422471998641e-04	1.806498e+00	2.634325e+00
1.658662471998525e-04	1.813350e+00	2.652860e+00
1.668902471998409e-04	1.820127e+00	2.671466e+00
1.679142471998292e-04	1.826828e+00	2.690140e+00
1.689382471998176e-04	1.833454e+00	2.708882e+00
1.699622471998060e-04	1.840004e+00	2.727692e+00
1.709862471997943e-04	1.846478e+00	2.746568e+00
1.720102471997827e-04	1.852875e+00	2.765511e+00
1.730342471997711e-04	1.859196e+00	2.784518e+00
1.740582471997594e-04	1.865440e+00	2.803589e+00
1.750822471997478e-04	1.871606e+00	2.822724e+00
1.761062471997362e-04	1.877695e+00	2.841922e+00
1.771302471997245e-04	1.883706e+00	2.861181e+00
1.781542471997129e-04	1.889640e+00	2.880502e+00
1.791782471997013e-04	1.895495e+00	2.899883e+00
1.802022471996896e-04	1.901271e+00	2.919323e+00
1.812262471996780e-04	1.906969e+00	2.938822e+00
1.822502471996664e-04	1.912588e+00	2.958379e+00
1.832742471996547e-04	1.918128e+00	2.977992e+00
1.842982471996431e-04	1.923589e+00	2.997663e+00
1.853222471996315e-04	1.928969e+00	3.017388e+00
1.863462471996198e-04	1.934270e+00	3.037168e+00
1.873702471996082e-04	1.939491e+00	3.057002e+00
1.883942471995966e-04	1.944632e+00	3.076889e+00
1.894182471995849e-04	1.949692e+00	3.096828e+00
1.904422471995733e-04	1.954671e+00	3.116819e+00
1.914662471995617e-04	1.959570e+00	3.136860e+00
1.924902471995501e-04	1.964387e+00	3.156950e+00
1.935142471995384e-04	1.969123e+00	3.177090e+00
1.945382471995268e-04	1.973778e+00	3.197278e+00
1.955622471995152e-04	1.978350e+00	3.217512e+00
1.965862471995035e-04	1.982841e+00	3.237793e+00
1.976102471994919e-04	1.987250e+00	3.258120e+00
1.986342471994803e-04	1.991577e+00	3.278491e+00
1.996582471994686e-04	1.995821e+00	3.298907e+00
2.006822471994570e-04	1.999982e+00	3.319365e+00
2.017062471994454e-04	2.004061e+00	3.339865e+00
2.027302471994337e-04	2.008057e+00	3.360407e+00
2.037542471994221e-04	2.011969e+00	3.380989e+00
2.047782471994105e-04	2.015799e+00	3.401610e+00
2.058022471993988e-04	2.019544e+00	3.422271e+00
2.068262471993872e-04	2.023207e+00	3.442969e+00
2.078502471993756e-04	2.026785e+00	3.463704e+00
2.088742471993639e-04	2.030280e+00	3.484475e+00
2.098982471993523e-04	2.033690e+00	3.505282e+00
2.109222471993407e-04	2.037017e+00	3.526123e+00
2.119462471993290e-04	2.040259e+00	3.546998e+00
2.129702471993174e-04	2.043417e+00	3.567905e+00
2.139942471993058e-04	2.046489e+00	3.588845e+00
2.150182471992941e-04	2.049478e+00	3.609815e+00
2.160422471992825e-04	2.052381e+00	3.630816e+00
2.170662471992709e-04	2.055200e+00	3.651845e+00
2.180902471992592e-04	2.057933e+00	3.672904e+00
2.191142471992476e-04	2.060581e+00	3.693989e+00
2.201382471992360e-04	2.063144e+00	3.715101e+00
2.211622471992243e-04	2.065622e+00	3.736240e+00
2.221862471992127e-04	2.068014e+00	3.757402e+00
2.232102471992011e-04	2.070320e+00	3.778589e+00
2.242342471991894e-04	2.072541e+00	3.799800e+00
2.252582471991778e-04	2.074676e+00	3.821032e+00
2.262822471991662e-04	2.076725e+00	3.842286e+00
2.273062471991545e-04	2.078688e+00	3.863560e+00
2.283302471991429e-04	2.080565e+00	3.884854e+00
2.293542471991313e-04	2.082356e+00	3.906167e+00
2.303782471991196e-04	2.084060e+00	3.927497e+00
2.314022471991080e-04	2.085679e+00	3.948845e+00
2.324262471990964e-04	2.087211e+00	3.970208e+00
2.334502471990848e-04	2.088657e+00	3.991587e+00
2.344742471990731e-04	2.090016e+00	4.012980e+00
2.354982471990615e-04	2.091289e+00	4.034387e+00
2.365222471990499e-04	2.092475e+00	4.055806e+00
2.375462471990382e-04	2.093574e+00	4.077237e+00
2.385702471990266e-04	2.094587e+00	4.098679e+00
2.395942471990150e-04	2.095513e+00	4.120130e+00
2.406182471990033e-04	2.096353e+00	4.141591e+00
2.416422471989917e-04	2.097105e+00	4.163059e+00
2.426662471989801e-04	2.097771e+00	4.184536e+00
2.436902471989684e-04	2.098350e+00	4.206017e+00
2.447142471989723e-04	2.098842e+00	4.227505e+00
2.457382471989884e-04	2.099247e+00	4.248998e+00
2.467622471990046e-04	2.099566e+00	4.270494e+00
2.477862471990207e-04	2.099797e+00	4.291992e+00
2.488102471990368e-04	2.099941e+00	4.313493e+00
2.498342471990529e-04	2.099999e+00	4.334994e+00
2.508582471990691e-04	2.099969e+00	4.356496e+00
2.518822471990852e-04	2.099853e+00	4.377997e+00
2.529062471991013e-04	2.099650e+00	4.399497e+00
2.539302471991174e-04	2.099360e+00	4.420993e+00
2.549542471991336e-04	2.098983e+00	4.442487e+00
2.559782471991497e-04	2.098519e+00	4.463975e+00
2.570022471991658e-04	2.097968e+00	4.485459e+00
2.580262471991819e-04	2.097330e+00	4.506937e+00
2.590502471991980e-04	2.096606e+00	4.528408e+00
2.600742471992142e-04	2.095794e+00	4.549870e+00
2.610982471992303e-04	2.094896e+00	4.571324e+00
2.621222471992464e-04	2.093912e+00	4.592769e+00
2.631462471992625e-04	2.092840e+00	4.614202e+00
2.641702471992787e-04	2.091682e+00	4.635625e+00
2.651942471992948e-04	2.090437e+00	4.657035e+00
2.662182471993109e-04	2.089106e+00	4.678432e+00
2.672422471993270e-04	2.087688e+00	4.699814e+00
2.682662471993432e-04	2.086184e+00	4.721182e+00
2.692902471993593e-04	2.084594e+00	4.742534e+00
2.703142471993754e-04	2.082917e+00	4.763869e+00
2.713382471993915e-04	2.081154e+00	4.785186e+00
2.723622471994077e-04	2.079305e+00	4.806485e+00
2.733862471994238e-04	2.077370e+00	4.827765e+00
2.744102471994399e-04	2.075349e+00	4.849024e+00
2.754342471994560e-04	2.073241e+00	4.870262e+00
2.764582471994721e-04	2.071048e+00	4.891478e+00
2.774822471994883e-04	2.068770e+00	4.912671e+00
2.785062471995044e-04	2.066406e+00	4.933840e+00
2.795302471995205e-04	2.063956e+00	4.954985e+00
2.805542471995366e-04	2.061420e+00	4.976104e+00
2.815782471995528e-04	2.058800e+00	4.997197e+00
2.826022471995689e-04	2.056094e+00	5.018262e+00
2.836262471995850e-04	2.053303e+00	5.039299e+00
2.846502471996011e-04	2.050427e+00	5.060307e+00
2.856742471996173e-04	2.047466e+00	5.081285e+00
2.866982471996334e-04	2.044420e+00	5.102232e+00
2.877222471996495e-04	2.041290e+00	5.123148e+00
2.887462471996656e-04	2.038075e+00	5.144032e+00
2.897702471996817e-04	2.034776e+00	5.164881e+00
2.907942471996979e-04	2.031393e+00	5.185697e+00
2.918182471997140e-04	2.027926e+00	5.206477e+00
2.928422471997301e-04	2.024374e+00	5.227222e+00
2.938662471997462e-04	2.020739e+00	5.247930e+00
2.948902471997624e-04	2.017020e+00	5.268600e+00
2.959142471997785e-04	2.013218e+00	5.289231e+00
2.969382471997946e-04	2.009332e+00	5.309823e+00
2.979622471998107e-04	2.005363e+00	5.330375e+00
2.989862471998269e-04	2.001312e+00	5.350885e+00
3.000102471998430e-04	1.997177e+00	5.371354e+00
3.010342471998591e-04	1.992959e+00	5.391780e+00
3.020582471998752e-04	1.988660e+00	5.412162e+00
3.030822471998913e-04	1.984277e+00	5.432500e+00
3.041062471999075e-04	1.979813e+00	5.452793e+00
3.051302471999236e-04	1.975267e+00	5.473039e+00
3.061542471999397e-04	1.970639e+00	5.493238e+00
3.071782471999558e-04	1.965929e+00	5.513390e+00
3.082022471999720e-04	1.961138e+00	5.533492e+00
3.092262471999881e-04	1.956266e+00	5.553545e+00
3.102502472000042e-04	1.951313e+00	5.573548e+00
3.112742472000203e-04	1.946279e+00	5.593500e+00
3.122982472000365e-04	1.941164e+00	5.613400e+00
3.133222472000526e-04	1.935969e+00	5.633246e+00
3.143462472000687e-04	1.930694e+00	5.653039e+00
3.153702472000848e-04	1.925339e+00	5.672778e+00
3.163942472001009e-04	1.919905e+00	5.692461e+00
3.174182472001171e-04	1.914391e+00	5.712088e+00
3.184422472001332e-04	1.908797e+00	5.731658e+00
3.194662472001493e-04	1.903125e+00	5.751171e+00
3.204902472001654e-04	1.897374e+00	5.770625e+00
3.215142472001816e-04	1.891544e+00	5.790020e+00
