time	V(s)	V(s1)	V(s2)	V(s3)
0.000000000000000e+00	0.000000e+00	0.000000e+00	0.000000e+00	0.000000e+00
9.999999824516700e-14	3.688289e-12	3.688289e-12	3.688289e-12	3.688289e-12
1.999999964903340e-13	7.377795e-12	7.377795e-12	7.377795e-12	7.377795e-12
1.599999971922672e-12	5.921088e-11	5.921088e-11	5.921088e-11	5.921088e-11
3.199999943845344e-12	1.188895e-10	1.188895e-10	1.188895e-10	1.188895e-10
6.399999887690688e-12	2.401707e-10	2.401707e-10	2.401707e-10	2.401707e-10
1.279999977538138e-11	4.907040e-10	4.907040e-10	4.907040e-10	4.907040e-10
2.559999955076275e-11	1.012036e-09	1.012036e-09	1.012036e-09	1.012036e-09
5.119999910152551e-11	2.085361e-09	2.085361e-09	2.085361e-09	2.085361e-09
1.023999982030510e-10	4.259008e-09	4.259008e-09	4.259008e-09	4.259008e-09
2.047999964061020e-10	8.618676e-09	8.618676e-09	8.618676e-09	8.618676e-09
1.449051428212039e-07	6.172875e-06	6.172895e-06	6.172884e-06	6.172871e-06
2.896054856460018e-07	1.231753e-05	1.231761e-05	1.231756e-05	1.231751e-05
4.343058284707996e-07	1.844257e-05	1.844275e-05	1.844265e-05	1.844254e-05
5.790061712955975e-07	2.454801e-05	2.454834e-05	2.454815e-05	2.454796e-05
7.237065141203953e-07	3.063385e-05	3.063436e-05	3.063407e-05	3.063377e-05
8.684068569451932e-07	3.670008e-05	3.670081e-05	3.670039e-05	3.669997e-05
1.013107199769991e-06	4.274671e-05	4.274770e-05	4.274713e-05	4.274656e-05
1.064535771198562e-06	4.488500e-05	4.488610e-05	4.488547e-05	4.488484e-05
1.115964342627133e-06	4.701747e-05	4.701868e-05	4.701799e-05	4.701729e-05
1.167392914055704e-06	4.914411e-05	4.914543e-05	4.914468e-05	4.914391e-05
1.218821485484275e-06	5.126492e-05	5.126636e-05	5.126554e-05	5.126471e-05
1.270250056912846e-06	5.337990e-05	5.338146e-05	5.338057e-05	5.337967e-05
1.321678628341416e-06	5.548905e-05	5.549074e-05	5.548977e-05	5.548880e-05
1.373107199769987e-06	5.759237e-05	5.759419e-05	5.759315e-05	5.759210e-05
1.403107199769987e-06	5.881650e-05	5.881840e-05	5.881731e-05	5.881621e-05
1.840250056912840e-06	7.667952e-05	7.668276e-05	7.668091e-05	7.667902e-05
2.277392914055693e-06	9.472450e-05	9.472946e-05	9.472663e-05	9.472375e-05
2.714535771198547e-06	1.129515e-04	1.129585e-04	1.129545e-04	1.129504e-04
3.151678628341400e-06	1.313604e-04	1.313699e-04	1.313645e-04	1.313590e-04
3.588821485484253e-06	1.499513e-04	1.499636e-04	1.499566e-04	1.499495e-04
4.025964342627106e-06	1.687242e-04	1.687397e-04	1.687308e-04	1.687219e-04
4.463107199769958e-06	1.876791e-04	1.876981e-04	1.876872e-04	1.876762e-04
4.911678628341382e-06	2.073443e-04	2.073673e-04	2.073542e-04	2.073408e-04
5.360250056912807e-06	2.274100e-04	2.274375e-04	2.274218e-04	2.274059e-04
5.808821485484231e-06	2.478763e-04	2.479086e-04	2.478901e-04	2.478714e-04
6.257392914055656e-06	2.687430e-04	2.687806e-04	2.687591e-04	2.687373e-04
6.705964342627080e-06	2.900102e-04	2.900536e-04	2.900288e-04	2.900036e-04
7.154535771198504e-06	3.116779e-04	3.117274e-04	3.116992e-04	3.116704e-04
7.603107199769928e-06	3.337461e-04	3.338022e-04	3.337702e-04	3.337376e-04
7.823107199769926e-06	3.448100e-04	3.448694e-04	3.448355e-04	3.448010e-04
8.043107199769924e-06	3.560365e-04	3.560994e-04	3.560635e-04	3.560269e-04
8.263107199769922e-06	3.674256e-04	3.674922e-04	3.674542e-04	3.674155e-04
8.483107199769920e-06	3.789774e-04	3.790478e-04	3.790076e-04	3.789667e-04
8.703107199769917e-06	3.906919e-04	3.907661e-04	3.907237e-04	3.906806e-04
8.923107199769915e-06	4.025689e-04	4.026471e-04	4.026025e-04	4.025571e-04
9.143107199769913e-06	4.146087e-04	4.146909e-04	4.146440e-04	4.145962e-04
9.265964342627055e-06	4.214198e-04	4.215044e-04	4.214561e-04	4.214069e-04
9.388821485484196e-06	4.282999e-04	4.283869e-04	4.283372e-04	4.282867e-04
9.511678628341338e-06	4.352491e-04	4.353385e-04	4.352875e-04	4.352355e-04
9.634535771198480e-06	4.422673e-04	4.423592e-04	4.423067e-04	4.422534e-04
9.757392914055622e-06	4.493546e-04	4.494489e-04	4.493951e-04	4.493403e-04
9.880250056912763e-06	4.565110e-04	4.566078e-04	4.565525e-04	4.564963e-04
1.000310719976991e-05	4.637364e-04	4.638358e-04	4.637790e-04	4.637213e-04
1.006310719976990e-05	4.672987e-04	4.673994e-04	4.673419e-04	4.672834e-04
1.014739291405562e-05	4.723299e-04	4.724324e-04	4.723739e-04	4.723143e-04
1.023167862834133e-05	4.774105e-04	4.775148e-04	4.774553e-04	4.773947e-04
1.031596434262705e-05	4.825406e-04	4.826467e-04	4.825861e-04	4.825245e-04
1.040025005691276e-05	4.877200e-04	4.878280e-04	4.877664e-04	4.877037e-04
1.048453577119847e-05	4.929489e-04	4.930588e-04	4.929961e-04	4.929323e-04
1.056882148548418e-05	4.982273e-04	4.983390e-04	4.982752e-04	4.982103e-04
1.065310719976990e-05	5.035550e-04	5.036687e-04	5.036038e-04	5.035378e-04
1.072167862834133e-05	5.079324e-04	5.080477e-04	5.079818e-04	5.079149e-04
1.079025005691275e-05	5.123651e-04	5.124819e-04	5.124152e-04	5.123473e-04
1.085882148548418e-05	5.168530e-04	5.169715e-04	5.169038e-04	5.168350e-04
1.092739291405561e-05	5.213962e-04	5.215163e-04	5.214477e-04	5.213780e-04
1.099596434262704e-05	5.259947e-04	5.261165e-04	5.260469e-04	5.259762e-04
1.106453577119847e-05	5.306485e-04	5.307719e-04	5.307014e-04	5.306298e-04
1.113310719976989e-05	5.353575e-04	5.354825e-04	5.354112e-04	5.353386e-04
1.119453577119847e-05	5.396320e-04	5.397586e-04	5.396863e-04	5.396129e-04
1.125596434262704e-05	5.439881e-04	5.441162e-04	5.440430e-04	5.439687e-04
1.131739291405561e-05	5.484257e-04	5.485554e-04	5.484813e-04	5.484061e-04
1.137882148548418e-05	5.529450e-04	5.530761e-04	5.530012e-04	5.529251e-04
1.144025005691275e-05	5.575458e-04	5.576784e-04	5.576027e-04	5.575257e-04
1.150167862834132e-05	5.622281e-04	5.623623e-04	5.622857e-04	5.622078e-04
1.156310719976989e-05	5.669921e-04	5.671278e-04	5.670503e-04	5.669715e-04
1.162025005691275e-05	5.715123e-04	5.716495e-04	5.715711e-04	5.714915e-04
1.167739291405560e-05	5.761667e-04	5.763054e-04	5.762262e-04	5.761456e-04
1.173453577119846e-05	5.809553e-04	5.810955e-04	5.810154e-04	5.809340e-04
1.179167862834132e-05	5.858781e-04	5.860199e-04	5.859389e-04	5.858566e-04
1.184882148548417e-05	5.909351e-04	5.910784e-04	5.909966e-04	5.909134e-04
1.190596434262703e-05	5.961263e-04	5.962712e-04	5.961885e-04	5.961044e-04
1.196310719976989e-05	6.014518e-04	6.015982e-04	6.015146e-04	6.014296e-04
1.201882148548417e-05	6.067987e-04	6.069466e-04	6.068621e-04	6.067763e-04
1.207453577119846e-05	6.123896e-04	6.125391e-04	6.124538e-04	6.123670e-04
1.213025005691274e-05	6.182246e-04	6.183757e-04	6.182894e-04	6.182018e-04
1.218596434262703e-05	6.243037e-04	6.244563e-04	6.243692e-04	6.242806e-04
1.224167862834131e-05	6.306268e-04	6.307810e-04	6.306930e-04	6.306035e-04
1.229739291405560e-05	6.371940e-04	6.373498e-04	6.372608e-04	6.371704e-04
1.235310719976988e-05	6.440053e-04	6.441626e-04	6.440728e-04	6.439814e-04
1.240882148548417e-05	6.511067e-04	6.512657e-04	6.511749e-04	6.510825e-04
1.246453577119845e-05	6.586749e-04	6.588356e-04	6.587438e-04	6.586505e-04
1.252025005691274e-05	6.667100e-04	6.668723e-04	6.667796e-04	6.666853e-04
1.257596434262702e-05	6.752119e-04	6.753759e-04	6.752822e-04	6.751870e-04
1.263167862834131e-05	6.841807e-04	6.843464e-04	6.842517e-04	6.841555e-04
1.268739291405559e-05	6.936162e-04	6.937837e-04	6.936880e-04	6.935908e-04
1.274310719976988e-05	7.035186e-04	7.036879e-04	7.035912e-04	7.034930e-04
1.277596434262702e-05	7.096847e-04	7.098550e-04	7.097577e-04	7.096589e-04
1.280882148548416e-05	7.161195e-04	7.162908e-04	7.161930e-04	7.160935e-04
1.284167862834131e-05	7.228230e-04	7.229954e-04	7.228969e-04	7.227968e-04
1.287453577119845e-05	7.297953e-04	7.299687e-04	7.298697e-04	7.297689e-04
1.290739291405559e-05	7.370363e-04	7.372108e-04	7.371111e-04	7.370098e-04
1.294025005691273e-05	7.445460e-04	7.447216e-04	7.446213e-04	7.445193e-04
1.297310719976988e-05	7.523244e-04	7.525012e-04	7.524002e-04	7.522976e-04
1.298310719976988e-05	7.547747e-04	7.549518e-04	7.548507e-04	7.547478e-04
1.301310719976988e-05	7.624545e-04	7.626327e-04	7.625310e-04	7.624275e-04
1.311310719976988e-05	7.901354e-04	7.903169e-04	7.902132e-04	7.901078e-04
1.321310719976987e-05	8.273364e-04	8.275215e-04	8.274158e-04	8.273083e-04
1.331310719976987e-05	8.740577e-04	8.742467e-04	8.741387e-04	8.740291e-04
1.341310719976987e-05	9.302992e-04	9.304922e-04	9.303820e-04	9.302700e-04
1.351310719976987e-05	9.960609e-04	9.962583e-04	9.961456e-04	9.960310e-04
1.361310719976987e-05	1.071343e-03	1.071545e-03	1.071429e-03	1.071312e-03
1.371310719976987e-05	1.156145e-03	1.156352e-03	1.156234e-03	1.156114e-03
1.386453577119844e-05	1.306212e-03	1.306426e-03	1.306304e-03	1.306179e-03
1.401596434262701e-05	1.492848e-03	1.493072e-03	1.492944e-03	1.492815e-03
1.416739291405558e-05	1.716055e-03	1.716290e-03	1.716156e-03	1.716019e-03
1.431882148548415e-05	1.975831e-03	1.976079e-03	1.975938e-03	1.975794e-03
1.447025005691272e-05	2.272178e-03	2.272440e-03	2.272290e-03	2.272138e-03
1.462167862834129e-05	2.605094e-03	2.605373e-03	2.605213e-03	2.605052e-03
1.477310719976986e-05	2.974580e-03	2.974877e-03	2.974707e-03	2.974535e-03
1.503739291405560e-05	3.718529e-03	3.718862e-03	3.718672e-03	3.718479e-03
1.530167862834135e-05	4.616686e-03	4.617068e-03	4.616850e-03	4.616629e-03
1.556596434262710e-05	5.669050e-03	5.669495e-03	5.669241e-03	5.668983e-03
1.583025005691284e-05	6.875622e-03	6.876145e-03	6.875846e-03	6.875543e-03
1.609453577119858e-05	8.236400e-03	8.237015e-03	8.236664e-03	8.236308e-03
1.635882148548433e-05	9.751386e-03	9.752108e-03	9.751696e-03	9.751278e-03
1.662310719977007e-05	1.142058e-02	1.142142e-02	1.142094e-02	1.142045e-02
1.685596434262725e-05	1.303784e-02	1.303881e-02	1.303825e-02	1.303769e-02
1.708882148548443e-05	1.479494e-02	1.479605e-02	1.479541e-02	1.479477e-02
1.732167862834161e-05	1.669187e-02	1.669315e-02	1.669242e-02	1.669168e-02
1.755453577119879e-05	1.872865e-02	1.873011e-02	1.872927e-02	1.872843e-02
1.778739291405597e-05	2.090526e-02	2.090693e-02	2.090597e-02	2.090501e-02
1.802025005691315e-05	2.322171e-02	2.322361e-02	2.322252e-02	2.322142e-02
1.825310719977033e-05	2.567799e-02	2.568014e-02	2.567891e-02	2.567767e-02
1.846596434262751e-05	2.805297e-02	2.805537e-02	2.805400e-02	2.805261e-02
1.867882148548469e-05	3.055577e-02	3.055845e-02	3.055692e-02	3.055536e-02
1.889167862834186e-05	3.318639e-02	3.318936e-02	3.318766e-02	3.318593e-02
1.910453577119904e-05	3.594482e-02	3.594812e-02	3.594623e-02	3.594431e-02
1.931739291405622e-05	3.883107e-02	3.883473e-02	3.883263e-02	3.883051e-02
1.953025005691340e-05	4.184513e-02	4.184917e-02	4.184686e-02	4.184452e-02
1.974310719977057e-05	4.498702e-02	4.499146e-02	4.498892e-02	4.498634e-02
2.000000000000000e-05	4.895993e-02	4.896491e-02	4.896207e-02	4.895918e-02
2.000100000000000e-05	4.897574e-02	4.898072e-02	4.897787e-02	4.897499e-02
2.000300000000000e-05	4.900735e-02	4.901234e-02	4.900949e-02	4.900660e-02
2.027500000000004e-05	5.329950e-02	5.330510e-02	5.330190e-02	5.329866e-02
2.050357142857151e-05	5.689535e-02	5.690151e-02	5.689799e-02	5.689443e-02
2.073214285714297e-05	6.047873e-02	6.048548e-02	6.048162e-02	6.047772e-02
2.096071428571444e-05	6.404964e-02	6.405701e-02	6.405280e-02	6.404854e-02
2.118928571428590e-05	6.760809e-02	6.761612e-02	6.761153e-02	6.760688e-02
2.141785714285737e-05	7.115407e-02	7.116279e-02	7.115781e-02	7.115276e-02
2.164642857142883e-05	7.468758e-02	7.469703e-02	7.469163e-02	7.468616e-02
2.187500000000030e-05	7.820862e-02	7.821883e-02	7.821299e-02	7.820708e-02
2.218214285714320e-05	8.291827e-02	8.292956e-02	8.292310e-02	8.291657e-02
2.248928571428611e-05	8.760264e-02	8.761507e-02	8.760797e-02	8.760076e-02
2.279642857142902e-05	9.226173e-02	9.227536e-02	9.226757e-02	9.225968e-02
2.310357142857192e-05	9.689555e-02	9.691044e-02	9.690193e-02	9.689331e-02
2.341071428571483e-05	1.015041e-01	1.015203e-01	1.015110e-01	1.015016e-01
2.371785714285774e-05	1.060873e-01	1.061049e-01	1.060949e-01	1.060847e-01
2.402500000000064e-05	1.106453e-01	1.106644e-01	1.106535e-01	1.106425e-01
2.448785714285786e-05	1.174644e-01	1.174856e-01	1.174735e-01	1.174612e-01
2.495071428571508e-05	1.242257e-01	1.242494e-01	1.242358e-01	1.242221e-01
2.541357142857229e-05	1.309293e-01	1.309555e-01	1.309405e-01	1.309254e-01
2.587642857142951e-05	1.375753e-01	1.376041e-01	1.375876e-01	1.375709e-01
2.633928571428673e-05	1.441635e-01	1.441951e-01	1.441771e-01	1.441588e-01
2.680214285714394e-05	1.506941e-01	1.507286e-01	1.507089e-01	1.506889e-01
2.726500000000116e-05	1.571670e-01	1.572045e-01	1.571831e-01	1.571614e-01
2.772785714285838e-05	1.635830e-01	1.636237e-01	1.636004e-01	1.635770e-01
2.819071428571559e-05	1.699446e-01	1.699885e-01	1.699634e-01	1.699380e-01
2.865357142857281e-05	1.762516e-01	1.762988e-01	1.762718e-01	1.762446e-01
2.911642857143003e-05	1.825041e-01	1.825548e-01	1.825258e-01	1.824966e-01
2.957928571428724e-05	1.887021e-01	1.887563e-01	1.887253e-01	1.886940e-01
3.004214285714446e-05	1.948456e-01	1.949035e-01	1.948704e-01	1.948370e-01
3.050500000000168e-05	2.009345e-01	2.009962e-01	2.009609e-01	2.009254e-01
3.051500000000168e-05	2.010655e-01	2.011273e-01	2.010920e-01	2.010563e-01
3.197642857143048e-05	2.199079e-01	2.199824e-01	2.199397e-01	2.198968e-01
3.343785714285929e-05	2.382854e-01	2.383735e-01	2.383231e-01	2.382723e-01
3.489928571428809e-05	2.561982e-01	2.563008e-01	2.562421e-01	2.561830e-01
3.636071428571690e-05	2.736462e-01	2.737641e-01	2.736966e-01	2.736288e-01
3.782214285714570e-05	2.906295e-01	2.907636e-01	2.906868e-01	2.906097e-01
3.928357142857451e-05	3.071480e-01	3.072992e-01	3.072126e-01	3.071257e-01
4.074500000000331e-05	3.232018e-01	3.233709e-01	3.232740e-01	3.231769e-01
4.075500000000331e-05	3.233105e-01	3.234797e-01	3.233828e-01	3.232855e-01
4.221642857143212e-05	3.389599e-01	3.391478e-01	3.390401e-01	3.389323e-01
4.367785714286092e-05	3.542432e-01	3.544504e-01	3.543317e-01	3.542128e-01
4.513928571428973e-05	3.691604e-01	3.693875e-01	3.692574e-01	3.691272e-01
4.660071428571853e-05	3.837115e-01	3.839591e-01	3.838172e-01	3.836753e-01
4.806214285714734e-05	3.978966e-01	3.981652e-01	3.980112e-01	3.978574e-01
4.952357142857615e-05	4.117155e-01	4.120059e-01	4.118394e-01	4.116732e-01
5.098500000000495e-05	4.251684e-01	4.254811e-01	4.253018e-01	4.251229e-01
5.099500000000495e-05	4.252595e-01	4.255724e-01	4.253929e-01	4.252140e-01
5.245642857143374e-05	4.383905e-01	4.387263e-01	4.385337e-01	4.383418e-01
5.391785714286253e-05	4.512269e-01	4.515859e-01	4.513800e-01	4.511748e-01
5.537928571429131e-05	4.637684e-01	4.641511e-01	4.639316e-01	4.637130e-01
5.684071428572010e-05	4.760153e-01	4.764221e-01	4.761887e-01	4.759565e-01
5.830214285714889e-05	4.879674e-01	4.883987e-01	4.881512e-01	4.879051e-01
5.976357142857768e-05	4.996247e-01	5.000810e-01	4.998191e-01	4.995590e-01
6.122500000000646e-05	5.109873e-01	5.114690e-01	5.111925e-01	5.109180e-01
6.123500000000646e-05	5.110644e-01	5.115462e-01	5.112696e-01	5.109950e-01
6.269642857143427e-05	5.221638e-01	5.226714e-01	5.223799e-01	5.220908e-01
6.415785714286209e-05	5.330194e-01	5.335529e-01	5.332466e-01	5.329428e-01
6.561928571428990e-05	5.436311e-01	5.441909e-01	5.438694e-01	5.435509e-01
6.708071428571772e-05	5.539990e-01	5.545852e-01	5.542485e-01	5.539151e-01
6.854214285714553e-05	5.641230e-01	5.647360e-01	5.643839e-01	5.640353e-01
7.000357142857335e-05	5.740031e-01	5.746432e-01	5.742754e-01	5.739117e-01
7.146500000000116e-05	5.836394e-01	5.843068e-01	5.839233e-01	5.835443e-01
7.147500000000115e-05	5.837047e-01	5.843722e-01	5.839886e-01	5.836095e-01
7.293642857142896e-05	5.931194e-01	5.938144e-01	5.934150e-01	5.930205e-01
7.439785714285679e-05	6.023260e-01	6.030486e-01	6.026333e-01	6.022233e-01
7.585928571428459e-05	6.113244e-01	6.120747e-01	6.116434e-01	6.112180e-01
7.732071428571242e-05	6.201147e-01	6.208928e-01	6.204455e-01	6.200045e-01
7.878214285714023e-05	6.286969e-01	6.295029e-01	6.290394e-01	6.285828e-01
8.024357142856805e-05	6.370709e-01	6.379049e-01	6.374252e-01	6.369531e-01
8.170499999999586e-05	6.452367e-01	6.460988e-01	6.456029e-01	6.451151e-01
8.171499999999585e-05	6.452920e-01	6.461543e-01	6.456583e-01	6.451704e-01
8.317642857142366e-05	6.532652e-01	6.541556e-01	6.536434e-01	6.531398e-01
8.463785714285148e-05	6.610541e-01	6.619726e-01	6.614442e-01	6.609251e-01
8.609928571427929e-05	6.686588e-01	6.696052e-01	6.690606e-01	6.685260e-01
8.756071428570712e-05	6.760792e-01	6.770535e-01	6.764928e-01	6.759428e-01
8.902214285713492e-05	6.833154e-01	6.843174e-01	6.837407e-01	6.831753e-01
9.048357142856275e-05	6.903673e-01	6.913970e-01	6.908042e-01	6.902235e-01
9.194499999999056e-05	6.972349e-01	6.982923e-01	6.976835e-01	6.970875e-01
9.195499999999055e-05	6.972814e-01	6.983389e-01	6.977299e-01	6.971339e-01
9.341642857141836e-05	7.039750e-01	7.050599e-01	7.044351e-01	7.038240e-01
9.487785714284618e-05	7.104979e-01	7.116099e-01	7.109694e-01	7.103434e-01
9.633928571427399e-05	7.168500e-01	7.179887e-01	7.173327e-01	7.166921e-01
9.780071428570181e-05	7.230314e-01	7.241965e-01	7.235251e-01	7.228702e-01
9.926214285712962e-05	7.290421e-01	7.302331e-01	7.295467e-01	7.288776e-01
1.007235714285574e-04	7.348820e-01	7.360986e-01	7.353973e-01	7.347143e-01
1.021849999999853e-04	7.405512e-01	7.417930e-01	7.410770e-01	7.403803e-01
1.021949999999852e-04	7.405894e-01	7.418314e-01	7.411153e-01	7.404186e-01
1.036564285714131e-04	7.460937e-01	7.473605e-01	7.466300e-01	7.459199e-01
1.051178571428409e-04	7.514294e-01	7.527201e-01	7.519757e-01	7.512527e-01
1.065792857142687e-04	7.565965e-01	7.579102e-01	7.571524e-01	7.564171e-01
1.080407142856965e-04	7.615950e-01	7.629309e-01	7.621601e-01	7.614130e-01
1.095021428571243e-04	7.664249e-01	7.677822e-01	7.669988e-01	7.662405e-01
1.109635714285521e-04	7.710861e-01	7.724640e-01	7.716685e-01	7.708995e-01
1.124249999999800e-04	7.755787e-01	7.769763e-01	7.761692e-01	7.753900e-01
1.124349999999799e-04	7.756089e-01	7.770066e-01	7.761995e-01	7.754201e-01
1.138664285714078e-04	7.798474e-01	7.812634e-01	7.804455e-01	7.796567e-01
1.152978571428356e-04	7.839096e-01	7.853420e-01	7.845144e-01	7.837174e-01
1.167292857142634e-04	7.877955e-01	7.892426e-01	7.884062e-01	7.876020e-01
1.181607142856913e-04	7.915051e-01	7.929650e-01	7.921209e-01	7.913107e-01
1.195921428571191e-04	7.950384e-01	7.965094e-01	7.956586e-01	7.948434e-01
1.210235714285469e-04	7.983953e-01	7.998756e-01	7.990192e-01	7.982001e-01
1.224549999999748e-04	8.015760e-01	8.030637e-01	8.022026e-01	8.013808e-01
1.226749999999746e-04	8.020463e-01	8.035347e-01	8.026732e-01	8.018511e-01
1.236835714285455e-04	8.041515e-01	8.056432e-01	8.047795e-01	8.039566e-01
1.246921428571165e-04	8.061495e-01	8.076426e-01	8.067778e-01	8.059553e-01
1.257007142856874e-04	8.080404e-01	8.095329e-01	8.086682e-01	8.078472e-01
1.267092857142583e-04	8.098242e-01	8.113142e-01	8.104506e-01	8.096323e-01
1.277178571428292e-04	8.115008e-01	8.129864e-01	8.121250e-01	8.113106e-01
1.287264285714001e-04	8.130703e-01	8.145496e-01	8.136915e-01	8.128821e-01
1.297349999999710e-04	8.145327e-01	8.160037e-01	8.151500e-01	8.143468e-01
1.301878571428279e-04	8.151472e-01	8.166135e-01	8.157623e-01	8.149626e-01
1.306407142856848e-04	8.157355e-01	8.171964e-01	8.163482e-01	8.155522e-01
1.310935714285417e-04	8.162975e-01	8.177525e-01	8.169075e-01	8.161157e-01
1.315464285713986e-04	8.168334e-01	8.182817e-01	8.174403e-01	8.166531e-01
1.319992857142555e-04	8.173430e-01	8.187841e-01	8.179467e-01	8.171643e-01
1.324521428571124e-04	8.178263e-01	8.192597e-01	8.184265e-01	8.176493e-01
1.329049999999693e-04	8.182834e-01	8.197083e-01	8.188798e-01	8.181083e-01
1.329149999999693e-04	8.182932e-01	8.197179e-01	8.188895e-01	8.181180e-01
1.336421428571118e-04	8.189716e-01	8.203813e-01	8.195613e-01	8.187997e-01
1.343692857142543e-04	8.195678e-01	8.209604e-01	8.201499e-01	8.193995e-01
1.350964285713968e-04	8.200817e-01	8.214553e-01	8.206553e-01	8.199173e-01
1.358235714285393e-04	8.205134e-01	8.218658e-01	8.210776e-01	8.203532e-01
1.365507142856817e-04	8.208627e-01	8.221921e-01	8.214167e-01	8.207071e-01
1.372778571428242e-04	8.211298e-01	8.224341e-01	8.216727e-01	8.209791e-01
1.380049999999667e-04	8.213146e-01	8.225918e-01	8.218455e-01	8.211692e-01
1.381349999999666e-04	8.213369e-01	8.226090e-01	8.218655e-01	8.211924e-01
