time	V(out)	V(outr)
0.000000000000000e+00	-1.698885e-15	-1.698885e-15
9.999999960041972e-13	-1.698885e-15	-1.698885e-15
1.999999992008394e-12	-1.698885e-15	-1.698885e-15
1.599999993606716e-11	-1.698885e-15	-1.698885e-15
3.199999987213431e-11	-1.698885e-15	-1.698885e-15
6.399999974426862e-11	-1.698885e-15	-1.698885e-15
1.061773038627569e-10	-1.698884e-15	-1.698884e-15
1.505041339380038e-10	-1.698884e-15	-1.698884e-15
1.913302151256478e-10	-1.698884e-15	-1.698884e-15
2.396674504609984e-10	-1.698884e-15	-1.698884e-15
3.292854245553135e-07	-3.157000e-16	-3.157000e-16
6.583311816601660e-07	3.767963e-15	3.767963e-15
9.873769387650184e-07	1.055211e-14	1.055211e-14
1.316422695869871e-06	2.003673e-14	2.003673e-14
1.645468452974723e-06	3.222183e-14	3.222183e-14
1.974514210079576e-06	4.710741e-14	4.710741e-14
2.303559967184427e-06	6.469347e-14	6.469347e-14
3.732131395755861e-06	1.724737e-13	1.724737e-13
5.160702824327294e-06	3.312743e-13	3.312743e-13
6.589274252898726e-06	5.410953e-13	5.410953e-13
8.017845681470159e-06	8.019367e-13	8.019367e-13
9.446417110041592e-06	1.113799e-12	1.113799e-12
1.087498853861303e-05	1.476681e-12	1.476681e-12
1.230355996718446e-05	1.890583e-12	1.890583e-12
1.268927425289874e-05	2.011085e-12	2.011085e-12
1.307498853861303e-05	2.135305e-12	2.135305e-12
1.346070282432732e-05	2.263245e-12	2.263245e-12
1.384641711004161e-05	2.394904e-12	2.394904e-12
1.423213139575590e-05	2.530283e-12	2.530283e-12
1.461784568147019e-05	2.669381e-12	2.669381e-12
1.500355996718448e-05	2.812199e-12	2.812199e-12
1.543213139575590e-05	2.975247e-12	2.975247e-12
1.586070282432733e-05	3.142887e-12	3.142887e-12
1.628927425289875e-05	3.315119e-12	3.315119e-12
1.671784568147018e-05	3.491943e-12	3.491943e-12
1.714641711004160e-05	3.673359e-12	3.673359e-12
1.757498853861303e-05	3.859366e-12	3.859366e-12
1.800355996718445e-05	4.049966e-12	4.049966e-12
1.828876568615810e-05	4.179361e-12	4.179361e-12
1.857397140513175e-05	4.310783e-12	4.310783e-12
1.885917712410540e-05	4.444232e-12	4.444232e-12
1.914438284307905e-05	4.579709e-12	4.579709e-12
1.942958856205270e-05	4.717212e-12	4.717212e-12
1.971479428102635e-05	4.856743e-12	4.856743e-12
2.000000000000000e-05	4.998301e-12	4.998301e-12
2.001000000000000e-05	5.003301e-12	5.003301e-12
2.003000000000000e-05	5.013301e-12	5.013301e-12
3.143285714285738e-05	1.071473e-11	1.071473e-11
4.283571428571474e-05	1.641616e-11	1.641616e-11
5.423857142857212e-05	2.211759e-11	2.211759e-11
6.564142857142949e-05	2.781902e-11	2.781902e-11
7.704428571428685e-05	3.352044e-11	3.352044e-11
8.844714285714423e-05	3.922187e-11	3.922187e-11
9.985000000000159e-05	4.492330e-11	4.492330e-11
9.995000000000159e-05	4.497330e-11	4.497330e-11
1.145642857142877e-04	5.228044e-11	5.228044e-11
1.291785714285737e-04	5.958759e-11	5.958759e-11
1.437928571428598e-04	6.689473e-11	6.689473e-11
1.584071428571459e-04	7.420188e-11	7.420188e-11
1.730214285714320e-04	8.150902e-11	8.150902e-11
1.876357142857180e-04	8.881616e-11	8.881616e-11
2.022500000000041e-04	9.612330e-11	9.612330e-11
2.023500000000041e-04	9.617330e-11	9.617330e-11
2.169642857142902e-04	1.034804e-10	1.034804e-10
2.315785714285762e-04	1.107876e-10	1.107876e-10
2.461928571428623e-04	1.180947e-10	1.180947e-10
2.608071428571484e-04	1.254019e-10	1.254019e-10
2.754214285714344e-04	1.327090e-10	1.327090e-10
2.900357142857205e-04	1.400162e-10	1.400162e-10
3.046500000000066e-04	1.473233e-10	1.473233e-10
3.047500000000066e-04	1.473733e-10	1.473733e-10
3.193642857142927e-04	1.546804e-10	1.546804e-10
3.339785714285787e-04	1.619876e-10	1.619876e-10
3.485928571428648e-04	1.692947e-10	1.692947e-10
3.632071428571509e-04	1.766019e-10	1.766019e-10
3.778214285714369e-04	1.839090e-10	1.839090e-10
3.924357142857230e-04	1.912162e-10	1.912162e-10
4.070500000000091e-04	1.985233e-10	1.985233e-10
4.071500000000091e-04	1.985733e-10	1.985733e-10
4.897500000000103e-04	2.946803e-10	4.042941e-10
4.925642857142945e-04	-2.452386e-08	-2.235441e-08
4.953785714285788e-04	-1.134877e-08	-3.353528e-09
4.981928571428630e-04	3.981992e-08	5.740694e-08
5.010071428571473e-04	1.289822e-07	1.599270e-07
5.038214285714315e-04	2.561382e-07	3.042066e-07
5.066357142857158e-04	4.212877e-07	4.902458e-07
5.094500000000001e-04	6.244309e-07	7.180446e-07
5.095500000000000e-04	6.339577e-07	7.285328e-07
5.168928571428534e-04	1.117146e-06	1.291477e-06
5.242357142857067e-04	2.833510e-06	3.123321e-06
5.315785714285601e-04	5.783048e-06	6.224067e-06
5.389214285714134e-04	9.965761e-06	1.059371e-05
5.462642857142667e-04	1.538165e-05	1.623226e-05
5.536071428571200e-04	2.203071e-05	2.313971e-05
5.609499999999734e-04	2.991295e-05	3.131606e-05
5.682214285713981e-04	3.963297e-05	4.136966e-05
5.754928571428230e-04	5.203673e-05	5.415886e-05
5.827642857142478e-04	6.712422e-05	6.968366e-05
5.900357142856726e-04	8.489544e-05	8.794404e-05
5.973071428570974e-04	1.053504e-04	1.089400e-04
6.045785714285223e-04	1.284891e-04	1.326716e-04
6.118499999999470e-04	1.543115e-04	1.591388e-04
6.119499999999470e-04	1.546977e-04	1.595344e-04
6.265642857142251e-04	2.137069e-04	2.199777e-04
6.411785714285033e-04	2.932931e-04	3.013343e-04
6.557928571427814e-04	3.934566e-04	4.036042e-04
6.704071428570595e-04	5.141971e-04	5.267873e-04
6.850214285713378e-04	6.555148e-04	6.708836e-04
6.996357142856159e-04	8.174097e-04	8.358931e-04
7.142499999998940e-04	9.998817e-04	1.021816e-03
7.143499999998940e-04	1.001255e-03	1.023215e-03
7.289642857141721e-04	1.211153e-03	1.236989e-03
7.435785714284503e-04	1.455447e-03	1.485700e-03
7.581928571427284e-04	1.734136e-03	1.769348e-03
7.728071428570065e-04	2.047220e-03	2.087933e-03
7.874214285712848e-04	2.394700e-03	2.441455e-03
8.020357142855629e-04	2.776576e-03	2.829913e-03
8.166499999998410e-04	3.192846e-03	3.253309e-03
8.167499999998409e-04	3.195869e-03	3.256383e-03
8.313642857141190e-04	3.654024e-03	3.722320e-03
8.459785714283973e-04	4.160307e-03	4.237154e-03
8.605928571426754e-04	4.714718e-03	4.800886e-03
8.752071428569535e-04	5.317256e-03	5.413516e-03
8.898214285712317e-04	5.967921e-03	6.075043e-03
9.044357142855098e-04	6.666715e-03	6.785469e-03
9.190499999997880e-04	7.413635e-03	7.544791e-03
9.191499999997879e-04	7.418965e-03	7.550209e-03
9.337642857140730e-04	8.221517e-03	8.366062e-03
9.483785714283581e-04	9.084483e-03	9.243317e-03
9.629928571426432e-04	1.000786e-02	1.018197e-02
9.776071428569282e-04	1.099166e-02	1.118203e-02
9.922214285712134e-04	1.203587e-02	1.224349e-02
1.006835714285499e-03	1.314049e-02	1.336636e-02
1.021449999999784e-03	1.430553e-02	1.455062e-02
1.021549999999784e-03	1.431375e-02	1.455898e-02
1.036164285714078e-03	1.554597e-02	1.581154e-02
1.050778571428371e-03	1.684806e-02	1.713513e-02
1.065392857142666e-03	1.822003e-02	1.852974e-02
1.080007142856960e-03	1.966188e-02	1.999538e-02
1.094621428571254e-03	2.117360e-02	2.153204e-02
1.109235714285547e-03	2.275519e-02	2.313974e-02
1.123849999999842e-03	2.440666e-02	2.481845e-02
1.123949999999842e-03	2.441823e-02	2.483021e-02
1.138564285714136e-03	2.614484e-02	2.658532e-02
1.153178571428429e-03	2.794681e-02	2.841701e-02
1.167792857142724e-03	2.982412e-02	3.032526e-02
1.182407142857018e-03	3.177679e-02	3.231008e-02
1.197021428571312e-03	3.380480e-02	3.437147e-02
1.211635714285605e-03	3.590817e-02	3.650943e-02
1.226249999999900e-03	3.808688e-02	3.872397e-02
1.226349999999900e-03	3.810206e-02	3.873939e-02
1.240964285714194e-03	4.035926e-02	4.103368e-02
1.255578571428487e-03	4.269261e-02	4.340527e-02
1.270192857142782e-03	4.510209e-02	4.585416e-02
1.284807142857076e-03	4.758772e-02	4.838036e-02
1.299421428571370e-03	5.014948e-02	5.098387e-02
1.314035714285663e-03	5.278739e-02	5.366469e-02
1.328649999999958e-03	5.550143e-02	5.642281e-02
1.328749999999958e-03	5.552026e-02	5.644194e-02
1.343364285714252e-03	5.831108e-02	5.927797e-02
1.357978571428545e-03	6.117406e-02	6.218715e-02
1.372592857142840e-03	6.410922e-02	6.516949e-02
1.387207142857134e-03	6.711654e-02	6.822498e-02
1.401821428571428e-03	7.019604e-02	7.135362e-02
1.416435714285721e-03	7.334770e-02	7.455542e-02
1.431050000000016e-03	7.657154e-02	7.783037e-02
1.431150000000016e-03	7.659382e-02	7.785300e-02
1.445764285714310e-03	7.988791e-02	8.119910e-02
1.460378571428603e-03	8.324601e-02	8.460989e-02
1.474992857142898e-03	8.666811e-02	8.808538e-02
1.489607142857192e-03	9.015421e-02	9.162556e-02
1.504221428571486e-03	9.370430e-02	9.523044e-02
1.518835714285779e-03	9.731840e-02	9.890002e-02
1.533450000000074e-03	1.009965e-01	1.026343e-01
1.533550000000074e-03	1.010218e-01	1.026600e-01
1.548164285714368e-03	1.047598e-01	1.064547e-01
1.562778571428661e-03	1.085505e-01	1.103025e-01
1.577392857142956e-03	1.123939e-01	1.142033e-01
1.592007142857250e-03	1.162900e-01	1.181572e-01
1.606621428571544e-03	1.202389e-01	1.221641e-01
1.621235714285837e-03	1.242404e-01	1.262241e-01
1.635850000000132e-03	1.282946e-01	1.303371e-01
1.635950000000132e-03	1.283225e-01	1.303654e-01
1.650564285714426e-03	1.324237e-01	1.345256e-01
1.665178571428719e-03	1.365646e-01	1.387254e-01
1.679792857143014e-03	1.407451e-01	1.429648e-01
1.694407142857308e-03	1.449653e-01	1.472439e-01
1.709021428571602e-03	1.492251e-01	1.515626e-01
1.723635714285895e-03	1.535245e-01	1.559209e-01
1.738250000000190e-03	1.578636e-01	1.603189e-01
1.738350000000190e-03	1.578934e-01	1.603491e-01
1.752964285714484e-03	1.622655e-01	1.647799e-01
1.767578571428777e-03	1.666637e-01	1.692365e-01
1.782192857143072e-03	1.710882e-01	1.737189e-01
1.796807142857366e-03	1.755387e-01	1.782272e-01
1.811421428571660e-03	1.800154e-01	1.827612e-01
1.826035714285953e-03	1.845183e-01	1.873211e-01
1.840650000000248e-03	1.890473e-01	1.919068e-01
1.840750000000248e-03	1.890783e-01	1.919382e-01
1.844821428571679e-03	1.903425e-01	1.932180e-01
1.848892857143109e-03	1.916080e-01	1.944992e-01
1.852964285714540e-03	1.928749e-01	1.957817e-01
1.857035714285971e-03	1.941432e-01	1.970655e-01
1.861107142857402e-03	1.954128e-01	1.983507e-01
1.865178571428833e-03	1.966839e-01	1.996372e-01
1.869250000000264e-03	1.979563e-01	2.009251e-01
1.871221428571693e-03	1.985728e-01	2.015491e-01
1.873192857143123e-03	1.991896e-01	2.021733e-01
1.875164285714553e-03	1.998067e-01	2.027979e-01
1.877135714285982e-03	2.004241e-01	2.034227e-01
1.879107142857412e-03	2.010417e-01	2.040477e-01
1.881078571428842e-03	2.016596e-01	2.046731e-01
1.883050000000272e-03	2.022778e-01	2.052986e-01
1.891621428571705e-03	2.049694e-01	2.080223e-01
1.900192857143138e-03	2.076647e-01	2.107495e-01
1.908764285714572e-03	2.103638e-01	2.134802e-01
1.917335714286005e-03	2.130666e-01	2.162144e-01
1.925907142857439e-03	2.157731e-01	2.189521e-01
1.934478571428872e-03	2.184833e-01	2.216933e-01
1.943050000000306e-03	2.211973e-01	2.244381e-01
1.943150000000306e-03	2.212290e-01	2.244701e-01
1.957764285714571e-03	2.258644e-01	2.291574e-01
1.972378571428836e-03	2.305018e-01	2.338460e-01
1.986992857143102e-03	2.351413e-01	2.385359e-01
2.001607142857367e-03	2.397828e-01	2.432270e-01
2.016221428571633e-03	2.444262e-01	2.479193e-01
2.030835714285898e-03	2.490717e-01	2.526129e-01
2.045450000000163e-03	2.537192e-01	2.573077e-01
2.045550000000163e-03	2.537510e-01	2.573398e-01
2.060164285714425e-03	2.583948e-01	2.620302e-01
2.074778571428688e-03	2.630312e-01	2.667121e-01
2.089392857142950e-03	2.676600e-01	2.713857e-01
2.104007142857212e-03	2.722813e-01	2.760510e-01
2.118621428571475e-03	2.768952e-01	2.807078e-01
2.133235714285737e-03	2.815015e-01	2.853564e-01
2.147849999999999e-03	2.861003e-01	2.899965e-01
2.147949999999999e-03	2.861317e-01	2.900282e-01
2.153249999999991e-03	2.877957e-01	2.917069e-01
2.158549999999982e-03	2.894580e-01	2.933839e-01
2.163849999999974e-03	2.911187e-01	2.950590e-01
2.169149999999965e-03	2.927776e-01	2.967323e-01
2.174449999999957e-03	2.944348e-01	2.984038e-01
2.179749999999948e-03	2.960903e-01	3.000735e-01
2.185049999999940e-03	2.977441e-01	3.017414e-01
2.188835714285648e-03	2.989242e-01	3.029314e-01
2.192621428571356e-03	3.001033e-01	3.041204e-01
2.196407142857064e-03	3.012814e-01	3.053083e-01
2.200192857142773e-03	3.024584e-01	3.064952e-01
2.203978571428481e-03	3.036345e-01	3.076809e-01
2.207764285714189e-03	3.048095e-01	3.088656e-01
2.211549999999897e-03	3.059835e-01	3.100491e-01
2.217078571428460e-03	3.076961e-01	3.117756e-01
2.222607142857022e-03	3.094061e-01	3.134994e-01
2.228135714285585e-03	3.111137e-01	3.152206e-01
2.233664285714147e-03	3.128188e-01	3.169391e-01
2.239192857142710e-03	3.145213e-01	3.186550e-01
2.244721428571273e-03	3.162214e-01	3.203682e-01
2.250249999999835e-03	3.179189e-01	3.220787e-01
2.250349999999835e-03	3.179496e-01	3.221096e-01
2.264964285714097e-03	3.224253e-01	3.266192e-01
2.279578571428360e-03	3.268791e-01	3.311058e-01
2.294192857142622e-03	3.313109e-01	3.355695e-01
2.308807142856884e-03	3.357207e-01	3.400103e-01
2.323421428571146e-03	3.401086e-01	3.444281e-01
2.338035714285409e-03	3.444745e-01	3.488231e-01
2.352649999999671e-03	3.488185e-01	3.531951e-01
2.352749999999671e-03	3.488481e-01	3.532250e-01
2.367364285713933e-03	3.531666e-01	3.575707e-01
2.381978571428196e-03	3.574583e-01	3.618887e-01
2.396592857142458e-03	3.617232e-01	3.661789e-01
2.411207142856720e-03	3.659612e-01	3.704414e-01
2.425821428570982e-03	3.701723e-01	3.746762e-01
2.440435714285245e-03	3.743565e-01	3.788832e-01
2.455049999999507e-03	3.785139e-01	3.830625e-01
2.455149999999507e-03	3.785422e-01	3.830909e-01
2.469764285713769e-03	3.826703e-01	3.872400e-01
2.484378571428032e-03	3.867682e-01	3.913581e-01
2.498992857142294e-03	3.908359e-01	3.954453e-01
2.513607142856556e-03	3.948736e-01	3.995016e-01
2.528221428570818e-03	3.988811e-01	4.035270e-01
2.542835714285081e-03	4.028585e-01	4.075214e-01
2.557449999999343e-03	4.068057e-01	4.114849e-01
2.557549999999343e-03	4.068326e-01	4.115119e-01
2.572164285713605e-03	4.107480e-01	4.154429e-01
2.586778571427868e-03	4.146314e-01	4.193411e-01
2.601392857142130e-03	4.184827e-01	4.232065e-01
2.616007142856392e-03	4.223019e-01	4.270391e-01
2.630621428570654e-03	4.260890e-01	4.308388e-01
2.645235714284917e-03	4.298441e-01	4.346057e-01
2.659849999999179e-03	4.335670e-01	4.383398e-01
2.659949999999179e-03	4.335924e-01	4.383652e-01
2.674564285713441e-03	4.372822e-01	4.420653e-01
2.689178571427704e-03	4.409388e-01	4.457314e-01
2.703792857141966e-03	4.445622e-01	4.493636e-01
2.718407142856228e-03	4.481524e-01	4.529619e-01
2.733021428570490e-03	4.517094e-01	4.565263e-01
2.747635714284753e-03	4.552331e-01	4.600568e-01
2.762249999999015e-03	4.587237e-01	4.635534e-01
2.762349999999015e-03	4.587474e-01	4.635772e-01
2.776964285713277e-03	4.622040e-01	4.670392e-01
2.791578571427540e-03	4.656271e-01	4.704671e-01
2.806192857141802e-03	4.690167e-01	4.738610e-01
2.820807142856064e-03	4.723729e-01	4.772209e-01
2.835421428570326e-03	4.756957e-01	4.805468e-01
2.850035714284589e-03	4.789849e-01	4.838387e-01
2.864649999998851e-03	4.822407e-01	4.870965e-01
2.864749999998851e-03	4.822629e-01	4.871187e-01
2.879364285713113e-03	4.854850e-01	4.903423e-01
2.893978571427376e-03	4.886741e-01	4.935325e-01
2.908592857141638e-03	4.918303e-01	4.966894e-01
2.923207142855900e-03	4.949535e-01	4.998128e-01
2.937821428570162e-03	4.980438e-01	5.029029e-01
2.952435714284425e-03	5.011012e-01	5.059596e-01
2.967049999998687e-03	5.041255e-01	5.089829e-01
2.967149999998687e-03	5.041462e-01	5.090035e-01
2.981764285712949e-03	5.071377e-01	5.119935e-01
2.996378571427212e-03	5.100973e-01	5.149513e-01
3.010992857141474e-03	5.130250e-01	5.178769e-01
3.025607142855736e-03	5.159207e-01	5.207701e-01
3.040221428569998e-03	5.187846e-01	5.236311e-01
3.054835714284261e-03	5.216165e-01	5.264599e-01
3.069449999998523e-03	5.244165e-01	5.292564e-01
3.069549999998523e-03	5.244355e-01	5.292755e-01
3.084164285712785e-03	5.272039e-01	5.320401e-01
3.098778571427048e-03	5.299418e-01	5.347739e-01
3.113392857141310e-03	5.326490e-01	5.374768e-01
3.128007142855572e-03	5.353257e-01	5.401490e-01
3.142621428569834e-03	5.379717e-01	5.427903e-01
3.157235714284097e-03	5.405872e-01	5.454008e-01
3.171849999998359e-03	5.431721e-01	5.479804e-01
3.171949999998359e-03	5.431896e-01	5.479980e-01
3.186564285712621e-03	5.457444e-01	5.505473e-01
3.201178571426884e-03	5.482702e-01	5.530674e-01
3.215792857141146e-03	5.507668e-01	5.555583e-01
3.230407142855408e-03	5.532344e-01	5.580200e-01
3.245021428569670e-03	5.556730e-01	5.604524e-01
3.259635714283933e-03	5.580824e-01	5.628555e-01
3.274249999998195e-03	5.604628e-01	5.652294e-01
3.274349999998195e-03	5.604790e-01	5.652456e-01
3.288964285712457e-03	5.628310e-01	5.675909e-01
3.303578571426719e-03	5.651554e-01	5.699086e-01
3.318192857140982e-03	5.674524e-01	5.721988e-01
3.332807142855244e-03	5.697219e-01	5.744613e-01
3.347421428569506e-03	5.719639e-01	5.766963e-01
3.362035714283769e-03	5.741785e-01	5.789037e-01
3.376649999998031e-03	5.763656e-01	5.810835e-01
3.376749999998031e-03	5.763805e-01	5.810983e-01
3.391364285712293e-03	5.785407e-01	5.832512e-01
3.405978571426555e-03	5.806751e-01	5.853782e-01
3.420592857140818e-03	5.827836e-01	5.874792e-01
3.435207142855080e-03	5.848662e-01	5.895543e-01
3.449821428569342e-03	5.869229e-01	5.916035e-01
3.464435714283605e-03	5.889537e-01	5.936267e-01
3.479049999997867e-03	5.909587e-01	5.956240e-01
3.479149999997867e-03	5.909724e-01	5.956376e-01
3.493764285712129e-03	5.929521e-01	5.976096e-01
3.508378571426391e-03	5.949075e-01	5.995572e-01
3.522992857140654e-03	5.968386e-01	6.014805e-01
3.537607142854916e-03	5.987453e-01	6.033795e-01
3.552221428569178e-03	6.006276e-01	6.052541e-01
3.566835714283441e-03	6.024857e-01	6.071043e-01
3.581449999997703e-03	6.043193e-01	6.089302e-01
3.581549999997703e-03	6.043318e-01	6.089427e-01
3.596164285711965e-03	6.061418e-01	6.107449e-01
3.610778571426227e-03	6.079288e-01	6.125242e-01
3.625392857140490e-03	6.096930e-01	6.142807e-01
3.640007142854752e-03	6.114344e-01	6.160143e-01
3.654621428569014e-03	6.131528e-01	6.177250e-01
3.669235714283276e-03	6.148483e-01	6.194130e-01
3.683849999997539e-03	6.165210e-01	6.210780e-01
3.683949999997538e-03	6.165323e-01	6.210893e-01
3.786349999997374e-03	6.276423e-01	6.321478e-01
3.800964285711637e-03	6.291423e-01	6.336407e-01
3.815578571425899e-03	6.306219e-01	6.351133e-01
3.830192857140161e-03	6.320812e-01	6.365656e-01
3.844807142854424e-03	6.335200e-01	6.379977e-01
3.859421428568686e-03	6.349386e-01	6.394096e-01
3.874035714282948e-03	6.363367e-01	6.408012e-01
3.888649999997211e-03	6.377146e-01	6.421725e-01
3.888749999997210e-03	6.377239e-01	6.421818e-01
3.903364285711525e-03	6.390818e-01	6.435333e-01
3.917978571425840e-03	6.404204e-01	6.448657e-01
3.932592857140154e-03	6.417396e-01	6.461788e-01
3.947207142854470e-03	6.430396e-01	6.474728e-01
3.961821428568785e-03	6.443202e-01	6.487475e-01
3.976435714283099e-03	6.455816e-01	6.500031e-01
3.991049999997414e-03	6.468236e-01	6.512395e-01
3.991149999997414e-03	6.468320e-01	6.512479e-01
4.005764285711740e-03	6.480551e-01	6.524655e-01
4.020378571426065e-03	6.492597e-01	6.536649e-01
4.034992857140391e-03	6.504459e-01	6.548459e-01
4.049607142854717e-03	6.516137e-01	6.560087e-01
4.064221428569043e-03	6.527630e-01	6.571532e-01
4.078835714283368e-03	6.538938e-01	6.582794e-01
4.093449999997694e-03	6.550062e-01	6.593873e-01
4.093549999997694e-03	6.550137e-01	6.593949e-01
4.108164285712020e-03	6.561080e-01	6.604848e-01
4.122778571426345e-03	6.571846e-01	6.615572e-01
4.137392857140671e-03	6.582434e-01	6.626121e-01
4.152007142854997e-03	6.592844e-01	6.636494e-01
4.166621428569323e-03	6.603077e-01	6.646691e-01
4.181235714283648e-03	6.613132e-01	6.656713e-01
4.195849999997974e-03	6.623010e-01	6.666560e-01
4.195949999997974e-03	6.623077e-01	6.666627e-01
4.210564285712300e-03	6.632780e-01	6.676300e-01
4.225178571426625e-03	6.642310e-01	6.685803e-01
4.239792857140951e-03	6.651668e-01	6.695136e-01
4.254407142855277e-03	6.660853e-01	6.704299e-01
4.269021428569603e-03	6.669865e-01	6.713291e-01
4.283635714283928e-03	6.678705e-01	6.722113e-01
4.298249999998254e-03	6.687373e-01	6.730766e-01
4.298349999998254e-03	6.687432e-01	6.730824e-01
4.312964285712580e-03	6.695928e-01	6.739307e-01
4.327578571426905e-03	6.704255e-01	6.747624e-01
4.342192857141231e-03	6.712413e-01	6.755774e-01
