time	V(s)	V(s1)	V(s2)	V(s3)
0.000000000000000e+00	0.000000e+00	0.000000e+00	0.000000e+00	0.000000e+00
9.999999960041972e-13	2.948056e-11	2.948056e-11	2.948056e-11	2.948056e-11
1.999999992008394e-12	5.896113e-11	5.896113e-11	5.896113e-11	5.896113e-11
1.599999993606716e-11	4.716890e-10	4.716890e-10	4.716890e-10	4.716890e-10
3.199999987213431e-11	9.442341e-10	9.442341e-10	9.442341e-10	9.442341e-10
6.399999974426862e-11	1.903147e-09	1.903147e-09	1.903147e-09	1.903147e-09
1.279999994885372e-10	3.896564e-09	3.896564e-09	3.896564e-09	3.896564e-09
2.559999989770745e-10	8.079115e-09	8.079114e-09	8.079114e-09	8.079114e-09
5.119999979541490e-10	1.670453e-08	1.670453e-08	1.670453e-08	1.670453e-08
1.023999995908298e-09	3.412572e-08	3.412572e-08	3.412571e-08	3.412571e-08
1.481737142073874e-07	5.049363e-06	5.049320e-06	5.049268e-06	5.049225e-06
2.953234284188666e-07	1.008200e-05	1.008184e-05	1.008164e-05	1.008148e-05
4.424731426303458e-07	1.513204e-05	1.513168e-05	1.513125e-05	1.513089e-05
5.896228568418249e-07	2.019947e-05	2.019884e-05	2.019808e-05	2.019745e-05
7.367725710533040e-07	2.528431e-05	2.528333e-05	2.528215e-05	2.528117e-05
8.839222852647832e-07	3.038654e-05	3.038514e-05	3.038345e-05	3.038205e-05
1.031071999476262e-06	3.550618e-05	3.550427e-05	3.550198e-05	3.550008e-05
1.431071999476262e-06	4.947534e-05	4.947168e-05	4.946728e-05	4.946361e-05
1.831071999476262e-06	6.368253e-05	6.367654e-05	6.366935e-05	6.366335e-05
2.231071999476261e-06	7.812776e-05	7.811887e-05	7.810820e-05	7.809930e-05
2.631071999476261e-06	9.281103e-05	9.279866e-05	9.278382e-05	9.277145e-05
3.031071999476261e-06	1.077323e-04	1.077159e-04	1.076962e-04	1.076798e-04
3.431071999476260e-06	1.228917e-04	1.228706e-04	1.228454e-04	1.228244e-04
3.831071999476259e-06	1.382890e-04	1.382628e-04	1.382313e-04	1.382051e-04
4.202500570904830e-06	1.528961e-04	1.528646e-04	1.528267e-04	1.527952e-04
4.573929142333401e-06	1.678990e-04	1.678616e-04	1.678168e-04	1.677794e-04
4.945357713761973e-06	1.832976e-04	1.832539e-04	1.832015e-04	1.831578e-04
5.316786285190543e-06	1.990919e-04	1.990415e-04	1.989809e-04	1.989304e-04
5.688214856619115e-06	2.152821e-04	2.152243e-04	2.151550e-04	2.150972e-04
6.059643428047686e-06	2.318679e-04	2.318024e-04	2.317237e-04	2.316581e-04
6.431071999476256e-06	2.488495e-04	2.487757e-04	2.486871e-04	2.486132e-04
6.659643428047685e-06	2.595871e-04	2.595079e-04	2.594129e-04	2.593337e-04
6.888214856619113e-06	2.704650e-04	2.703802e-04	2.702786e-04	2.701939e-04
7.116786285190543e-06	2.814832e-04	2.813928e-04	2.812843e-04	2.811939e-04
7.345357713761972e-06	2.926419e-04	2.925456e-04	2.924300e-04	2.923336e-04
7.573929142333400e-06	3.039409e-04	3.038385e-04	3.037156e-04	3.036132e-04
7.802500570904830e-06	3.153804e-04	3.152716e-04	3.151412e-04	3.150325e-04
8.031071999476258e-06	3.269601e-04	3.268450e-04	3.267068e-04	3.265916e-04
8.345357713761975e-06	3.431804e-04	3.430560e-04	3.429068e-04	3.427825e-04
8.659643428047692e-06	3.592140e-04	3.590801e-04	3.589194e-04	3.587855e-04
8.973929142333407e-06	3.750609e-04	3.749171e-04	3.747446e-04	3.746008e-04
9.288214856619124e-06	3.907211e-04	3.905670e-04	3.903822e-04	3.902282e-04
9.602500570904841e-06	4.061946e-04	4.060299e-04	4.058324e-04	4.056678e-04
9.916786285190558e-06	4.214814e-04	4.213058e-04	4.210951e-04	4.209195e-04
1.023107199947627e-05	4.365815e-04	4.363947e-04	4.361704e-04	4.359835e-04
1.041678628519056e-05	4.451514e-04	4.449577e-04	4.447252e-04	4.445315e-04
1.060250057090485e-05	4.535349e-04	4.533342e-04	4.530934e-04	4.528927e-04
1.078821485661914e-05	4.617320e-04	4.615242e-04	4.612749e-04	4.610671e-04
1.097392914233342e-05	4.697427e-04	4.695277e-04	4.692697e-04	4.690547e-04
1.115964342804771e-05	4.775671e-04	4.773447e-04	4.770779e-04	4.768556e-04
1.134535771376200e-05	4.852050e-04	4.849752e-04	4.846995e-04	4.844696e-04
1.153107199947628e-05	4.926566e-04	4.924192e-04	4.921344e-04	4.918969e-04
1.171678628519057e-05	4.999045e-04	4.996594e-04	4.993652e-04	4.991201e-04
1.190250057090486e-05	5.069973e-04	5.067444e-04	5.064408e-04	5.061879e-04
1.208821485661914e-05	5.139351e-04	5.136742e-04	5.133611e-04	5.131003e-04
1.227392914233343e-05	5.207179e-04	5.204490e-04	5.201262e-04	5.198572e-04
1.245964342804772e-05	5.273458e-04	5.270686e-04	5.267359e-04	5.264588e-04
1.264535771376201e-05	5.338186e-04	5.335331e-04	5.331904e-04	5.329049e-04
1.283107199947629e-05	5.401364e-04	5.398424e-04	5.394896e-04	5.391957e-04
1.293107199947629e-05	5.434995e-04	5.432009e-04	5.428427e-04	5.425441e-04
1.303107199947629e-05	5.468371e-04	5.465339e-04	5.461701e-04	5.458669e-04
1.313107199947630e-05	5.501683e-04	5.498604e-04	5.494910e-04	5.491832e-04
1.323107199947630e-05	5.535189e-04	5.532063e-04	5.528312e-04	5.525186e-04
1.333107199947630e-05	5.569159e-04	5.565986e-04	5.562179e-04	5.559005e-04
1.343107199947630e-05	5.603857e-04	5.600636e-04	5.596771e-04	5.593551e-04
1.353107199947630e-05	5.639542e-04	5.636273e-04	5.632350e-04	5.629082e-04
1.363107199947630e-05	5.676468e-04	5.673151e-04	5.669170e-04	5.665852e-04
1.373107199947630e-05	5.714885e-04	5.711519e-04	5.707480e-04	5.704113e-04
1.383107199947630e-05	5.755039e-04	5.751624e-04	5.747526e-04	5.744110e-04
1.393107199947630e-05	5.797173e-04	5.793708e-04	5.789550e-04	5.786085e-04
1.403107199947630e-05	5.841524e-04	5.838009e-04	5.833792e-04	5.830277e-04
1.413107199947630e-05	5.888329e-04	5.884764e-04	5.880487e-04	5.876921e-04
1.423107199947630e-05	5.937822e-04	5.934206e-04	5.929868e-04	5.926252e-04
1.433107199947630e-05	5.990232e-04	5.986565e-04	5.982165e-04	5.978498e-04
1.443107199947630e-05	6.045787e-04	6.042069e-04	6.037608e-04	6.033890e-04
1.453107199947631e-05	6.104714e-04	6.100944e-04	6.096421e-04	6.092651e-04
1.463107199947631e-05	6.167236e-04	6.163415e-04	6.158828e-04	6.155007e-04
1.483107199947631e-05	6.303954e-04	6.300027e-04	6.295315e-04	6.291388e-04
1.503107199947631e-05	6.457700e-04	6.453667e-04	6.448827e-04	6.444794e-04
1.523107199947631e-05	6.630216e-04	6.626075e-04	6.621105e-04	6.616964e-04
1.543107199947631e-05	6.823225e-04	6.818975e-04	6.813874e-04	6.809624e-04
1.573107199947631e-05	7.154911e-04	7.150494e-04	7.145194e-04	7.140777e-04
1.603107199947630e-05	7.542312e-04	7.537726e-04	7.532221e-04	7.527635e-04
1.633107199947630e-05	7.991161e-04	7.986401e-04	7.980691e-04	7.975930e-04
1.663107199947630e-05	8.507186e-04	8.502250e-04	8.496328e-04	8.491392e-04
1.693107199947629e-05	9.096126e-04	9.091011e-04	9.084874e-04	9.079759e-04
1.723107199947629e-05	9.763742e-04	9.758445e-04	9.752088e-04	9.746791e-04
1.748821485661915e-05	1.039368e-03	1.038822e-03	1.038168e-03	1.037622e-03
1.774535771376200e-05	1.109863e-03	1.109301e-03	1.108627e-03	1.108065e-03
1.800250057090486e-05	1.187859e-03	1.187281e-03	1.186587e-03	1.186009e-03
1.825964342804771e-05	1.273356e-03	1.272761e-03	1.272048e-03	1.271453e-03
1.851678628519057e-05	1.366354e-03	1.365743e-03	1.365009e-03	1.364398e-03
1.877392914233342e-05	1.466854e-03	1.466225e-03	1.465471e-03	1.464843e-03
1.903107199947627e-05	1.574855e-03	1.574209e-03	1.573434e-03	1.572789e-03
1.916949028526538e-05	1.637033e-03	1.636378e-03	1.635592e-03	1.634937e-03
1.930790857105448e-05	1.701939e-03	1.701275e-03	1.700477e-03	1.699813e-03
1.944632685684359e-05	1.769573e-03	1.768899e-03	1.768091e-03	1.767417e-03
1.958474514263269e-05	1.839936e-03	1.839252e-03	1.838432e-03	1.837748e-03
1.972316342842179e-05	1.913026e-03	1.912333e-03	1.911501e-03	1.910808e-03
1.986158171421090e-05	1.988845e-03	1.988142e-03	1.987298e-03	1.986595e-03
2.000000000000000e-05	2.067392e-03	2.066679e-03	2.065823e-03	2.065111e-03
2.001000000000000e-05	2.072901e-03	2.072187e-03	2.071331e-03	2.070618e-03
2.003000000000000e-05	2.083920e-03	2.083205e-03	2.082347e-03	2.081632e-03
2.049000000000000e-05	2.337451e-03	2.336704e-03	2.335807e-03	2.335059e-03
2.094999999999999e-05	2.590982e-03	2.590202e-03	2.589266e-03	2.588486e-03
2.140999999999999e-05	2.844511e-03	2.843698e-03	2.842723e-03	2.841911e-03
2.186999999999999e-05	3.098039e-03	3.097194e-03	3.096180e-03	3.095335e-03
2.232999999999998e-05	3.351567e-03	3.350689e-03	3.349635e-03	3.348758e-03
2.278999999999998e-05	3.605093e-03	3.604182e-03	3.603090e-03	3.602179e-03
2.324999999999997e-05	3.858618e-03	3.857675e-03	3.856543e-03	3.855600e-03
2.407857142857139e-05	4.315113e-03	4.314111e-03	4.312909e-03	4.311908e-03
2.490714285714281e-05	4.771332e-03	4.770272e-03	4.769000e-03	4.767940e-03
2.573571428571424e-05	5.227277e-03	5.226158e-03	5.224816e-03	5.223697e-03
2.656428571428566e-05	5.682946e-03	5.681769e-03	5.680357e-03	5.679180e-03
2.739285714285708e-05	6.138340e-03	6.137104e-03	6.135622e-03	6.134387e-03
2.822142857142850e-05	6.593459e-03	6.592165e-03	6.590613e-03	6.589319e-03
2.904999999999992e-05	7.048302e-03	7.046950e-03	7.045328e-03	7.043975e-03
3.259285714285714e-05	8.989394e-03	8.987792e-03	8.985871e-03	8.984269e-03
3.613571428571436e-05	1.092422e-02	1.092237e-02	1.092015e-02	1.091830e-02
3.967857142857158e-05	1.285279e-02	1.285069e-02	1.284817e-02	1.284607e-02
4.322142857142880e-05	1.477509e-02	1.477274e-02	1.476993e-02	1.476758e-02
4.676428571428603e-05	1.669113e-02	1.668854e-02	1.668543e-02	1.668283e-02
5.030714285714325e-05	1.860090e-02	1.859806e-02	1.859466e-02	1.859182e-02
5.385000000000047e-05	2.050442e-02	2.050133e-02	2.049763e-02	2.049455e-02
6.047857142857206e-05	2.404859e-02	2.404504e-02	2.404080e-02	2.403726e-02
6.710714285714366e-05	2.757159e-02	2.756759e-02	2.756280e-02	2.755880e-02
7.373571428571525e-05	3.107342e-02	3.106896e-02	3.106363e-02	3.105918e-02
8.036428571428684e-05	3.455408e-02	3.454917e-02	3.454329e-02	3.453839e-02
8.699285714285844e-05	3.801356e-02	3.800820e-02	3.800179e-02	3.799643e-02
9.362142857143002e-05	4.145187e-02	4.144607e-02	4.143912e-02	4.143331e-02
1.002500000000016e-04	4.486901e-02	4.486276e-02	4.485528e-02	4.484903e-02
1.003500000000016e-04	4.492041e-02	4.491416e-02	4.490667e-02	4.490041e-02
1.149642857142877e-04	5.237789e-02	5.237066e-02	5.236200e-02	5.235477e-02
1.295785714285737e-04	5.974243e-02	5.973423e-02	5.972441e-02	5.971621e-02
1.441928571428598e-04	6.701402e-02	6.700486e-02	6.699390e-02	6.698474e-02
1.588071428571459e-04	7.419267e-02	7.418256e-02	7.417047e-02	7.416036e-02
1.734214285714320e-04	8.127838e-02	8.126733e-02	8.125412e-02	8.124306e-02
1.880357142857181e-04	8.827115e-02	8.825916e-02	8.824484e-02	8.823285e-02
2.026500000000041e-04	9.517098e-02	9.515806e-02	9.514265e-02	9.512973e-02
2.027500000000041e-04	9.521792e-02	9.520500e-02	9.518958e-02	9.517665e-02
2.173642857142902e-04	1.020311e-01	1.020173e-01	1.020007e-01	1.019869e-01
2.319785714285762e-04	1.087631e-01	1.087483e-01	1.087308e-01	1.087160e-01
2.465928571428623e-04	1.154139e-01	1.153983e-01	1.153796e-01	1.153640e-01
2.612071428571484e-04	1.219836e-01	1.219671e-01	1.219473e-01	1.219308e-01
2.758214285714345e-04	1.284721e-01	1.284547e-01	1.284339e-01	1.284165e-01
2.904357142857205e-04	1.348795e-01	1.348611e-01	1.348393e-01	1.348210e-01
3.050500000000066e-04	1.412056e-01	1.411864e-01	1.411636e-01	1.411444e-01
3.051500000000066e-04	1.412487e-01	1.412295e-01	1.412066e-01	1.411874e-01
3.197642857142927e-04	1.474989e-01	1.474788e-01	1.474549e-01	1.474348e-01
3.343785714285787e-04	1.536777e-01	1.536568e-01	1.536319e-01	1.536110e-01
3.489928571428648e-04	1.597852e-01	1.597634e-01	1.597375e-01	1.597158e-01
3.636071428571509e-04	1.658214e-01	1.657988e-01	1.657719e-01	1.657492e-01
3.782214285714369e-04	1.717863e-01	1.717628e-01	1.717349e-01	1.717114e-01
3.928357142857230e-04	1.776798e-01	1.776554e-01	1.776266e-01	1.776022e-01
4.074500000000091e-04	1.835019e-01	1.834768e-01	1.834469e-01	1.834218e-01
4.075500000000091e-04	1.835416e-01	1.835164e-01	1.834865e-01	1.834614e-01
5.099499999999998e-04	2.225398e-01	2.225090e-01	2.224725e-01	2.224416e-01
6.123499999999468e-04	2.586177e-01	2.585815e-01	2.585387e-01	2.585024e-01
7.147499999998937e-04	2.920938e-01	2.920524e-01	2.920035e-01	2.919621e-01
8.171499999998407e-04	3.232408e-01	3.231943e-01	3.231397e-01	3.230932e-01
9.195499999997877e-04	3.522933e-01	3.522421e-01	3.521818e-01	3.521305e-01
1.021949999999784e-03	3.794550e-01	3.793990e-01	3.793334e-01	3.792774e-01
1.124349999999842e-03	4.049027e-01	4.048421e-01	4.047713e-01	4.047108e-01
1.226749999999900e-03	4.287913e-01	4.287263e-01	4.286505e-01	4.285855e-01
1.329149999999958e-03	4.512570e-01	4.511877e-01	4.511069e-01	4.510376e-01
1.431550000000016e-03	4.724197e-01	4.723462e-01	4.722607e-01	4.721872e-01
1.533950000000074e-03	4.923858e-01	4.923082e-01	4.922180e-01	4.921404e-01
1.636350000000132e-03	5.112497e-01	5.111681e-01	5.110734e-01	5.109918e-01
1.738750000000190e-03	5.290959e-01	5.290104e-01	5.289112e-01	5.288256e-01
1.841150000000248e-03	5.459997e-01	5.459103e-01	5.458068e-01	5.457174e-01
1.943550000000306e-03	5.620289e-01	5.619357e-01	5.618280e-01	5.617348e-01
2.045950000000163e-03	5.772444e-01	5.771475e-01	5.770357e-01	5.769388e-01
2.148349999999999e-03	5.917014e-01	5.916008e-01	5.914850e-01	5.913844e-01
2.250749999999834e-03	6.054496e-01	6.053455e-01	6.052256e-01	6.051216e-01
2.353149999999670e-03	6.185343e-01	6.184267e-01	6.183029e-01	6.181954e-01
2.455549999999506e-03	6.309966e-01	6.308856e-01	6.307580e-01	6.306471e-01
2.557949999999342e-03	6.428741e-01	6.427597e-01	6.426285e-01	6.425141e-01
2.660349999999178e-03	6.542010e-01	6.540834e-01	6.539485e-01	6.538308e-01
2.762749999999014e-03	6.650087e-01	6.648878e-01	6.647494e-01	6.646286e-01
2.865149999998850e-03	6.753261e-01	6.752021e-01	6.750602e-01	6.749362e-01
2.967549999998686e-03	6.851795e-01	6.850524e-01	6.849071e-01	6.847800e-01
3.069949999998522e-03	6.945934e-01	6.944633e-01	6.943147e-01	6.941845e-01
3.172349999998358e-03	7.035902e-01	7.034571e-01	7.033054e-01	7.031723e-01
3.274749999998194e-03	7.121907e-01	7.120547e-01	7.118999e-01	7.117639e-01
3.377149999998030e-03	7.204141e-01	7.202753e-01	7.201174e-01	7.199786e-01
3.479549999997866e-03	7.282782e-01	7.281367e-01	7.279758e-01	7.278343e-01
3.581949999997702e-03	7.357995e-01	7.356553e-01	7.354916e-01	7.353474e-01
3.684349999997538e-03	7.429933e-01	7.428465e-01	7.426801e-01	7.425334e-01
3.786749999997374e-03	7.498739e-01	7.497247e-01	7.495556e-01	7.494064e-01
3.889149999997210e-03	7.564546e-01	7.563030e-01	7.561314e-01	7.559798e-01
3.991549999997415e-03	7.627477e-01	7.625938e-01	7.624198e-01	7.622658e-01
4.093949999997695e-03	7.687648e-01	7.686086e-01	7.684323e-01	7.682762e-01
4.196349999997975e-03	7.745165e-01	7.743582e-01	7.741798e-01	7.740214e-01
4.298749999998255e-03	7.800129e-01	7.798526e-01	7.796721e-01	7.795118e-01
4.401149999998535e-03	7.852634e-01	7.851012e-01	7.849188e-01	7.847566e-01
4.503549999998815e-03	7.902767e-01	7.901127e-01	7.899285e-01	7.897645e-01
4.605949999999095e-03	7.950609e-01	7.948952e-01	7.947094e-01	7.945438e-01
4.708349999999376e-03	7.996235e-01	7.994564e-01	7.992691e-01	7.991019e-01
4.810749999999656e-03	8.039717e-01	8.038032e-01	8.036147e-01	8.034461e-01
4.913149999999936e-03	8.081120e-01	8.079422e-01	8.077526e-01	8.075828e-01
5.015550000000216e-03	8.120502e-01	8.118794e-01	8.116890e-01	8.115181e-01
5.117950000000496e-03	8.157921e-01	8.156204e-01	8.154293e-01	8.152576e-01
5.220350000000776e-03	8.193427e-01	8.191703e-01	8.189788e-01	8.188064e-01
5.322750000001056e-03	8.227064e-01	8.225336e-01	8.223420e-01	8.221691e-01
5.425150000001336e-03	8.258874e-01	8.257144e-01	8.255229e-01	8.253499e-01
5.527550000001616e-03	8.288891e-01	8.287162e-01	8.285252e-01	8.283522e-01
5.629950000001896e-03	8.317143e-01	8.315418e-01	8.313518e-01	8.311792e-01
5.732350000002176e-03	8.343653e-01	8.341936e-01	8.340050e-01	8.338331e-01
5.834750000002456e-03	8.368433e-01	8.366729e-01	8.364862e-01	8.363155e-01
5.937150000002736e-03	8.391485e-01	8.389799e-01	8.387958e-01	8.386269e-01
6.039550000003016e-03	8.412796e-01	8.411135e-01	8.409328e-01	8.407663e-01
6.141950000003296e-03	8.432332e-01	8.430705e-01	8.428943e-01	8.427312e-01
6.244350000003576e-03	8.450021e-01	8.448442e-01	8.446742e-01	8.445156e-01
6.346750000003856e-03	8.465730e-01	8.464220e-01	8.462605e-01	8.461084e-01
6.361364285718182e-03	8.467801e-01	8.466303e-01	8.464703e-01	8.463193e-01
6.375978571432507e-03	8.469822e-01	8.468337e-01	8.466754e-01	8.465256e-01
6.390592857146833e-03	8.471793e-01	8.470322e-01	8.468756e-01	8.467271e-01
6.405207142861159e-03	8.473713e-01	8.472257e-01	8.470710e-01	8.469240e-01
6.419821428575485e-03	8.475583e-01	8.474144e-01	8.472616e-01	8.471161e-01
6.434435714289810e-03	8.477402e-01	8.475981e-01	8.474475e-01	8.473036e-01
6.449050000004136e-03	8.479171e-01	8.477769e-01	8.476285e-01	8.474863e-01
6.449150000004136e-03	8.479183e-01	8.477781e-01	8.476297e-01	8.474876e-01
6.463764285718462e-03	8.480903e-01	8.479520e-01	8.478059e-01	8.476656e-01
6.478378571432787e-03	8.482549e-01	8.481189e-01	8.479755e-01	8.478372e-01
6.492992857147113e-03	8.484122e-01	8.482788e-01	8.481385e-01	8.480025e-01
6.507607142861439e-03	8.485621e-01	8.484317e-01	8.482949e-01	8.481615e-01
6.522221428575765e-03	8.487048e-01	8.485776e-01	8.484447e-01	8.483142e-01
6.536835714290090e-03	8.488400e-01	8.487166e-01	8.485879e-01	8.484606e-01
6.551450000004416e-03	8.489680e-01	8.488485e-01	8.487244e-01	8.486006e-01
6.551550000004416e-03	8.489688e-01	8.488494e-01	8.487253e-01	8.486015e-01
6.558964285718723e-03	8.490298e-01	8.489127e-01	8.487912e-01	8.486693e-01
6.566378571433028e-03	8.490872e-01	8.489727e-01	8.488542e-01	8.487345e-01
6.573792857147334e-03	8.491411e-01	8.490296e-01	8.489143e-01	8.487971e-01
6.581207142861640e-03	8.491914e-01	8.490833e-01	8.489717e-01	8.488571e-01
6.588621428575947e-03	8.492382e-01	8.491338e-01	8.490262e-01	8.489145e-01
6.596035714290252e-03	8.492815e-01	8.491811e-01	8.490778e-01	8.489693e-01
6.603450000004558e-03	8.493212e-01	8.492252e-01	8.491266e-01	8.490215e-01
6.607464285718855e-03	8.493406e-01	8.492472e-01	8.491514e-01	8.490483e-01
6.611478571433151e-03	8.493580e-01	8.492675e-01	8.491748e-01	8.490739e-01
6.615492857147448e-03	8.493734e-01	8.492862e-01	8.491969e-01	8.490983e-01
6.619507142861745e-03	8.493869e-01	8.493033e-01	8.492176e-01	8.491215e-01
6.623521428576042e-03	8.493985e-01	8.493187e-01	8.492369e-01	8.491436e-01
6.627535714290338e-03	8.494081e-01	8.493324e-01	8.492548e-01	8.491644e-01
6.631550000004635e-03	8.494157e-01	8.493444e-01	8.492714e-01	8.491841e-01
6.634035714290356e-03	8.494190e-01	8.493508e-01	8.492808e-01	8.491955e-01
6.636521428576078e-03	8.494211e-01	8.493561e-01	8.492893e-01	8.492063e-01
6.639007142861799e-03	8.494219e-01	8.493604e-01	8.492971e-01	8.492164e-01
6.641492857147519e-03	8.494215e-01	8.493636e-01	8.493041e-01	8.492258e-01
6.643978571433240e-03	8.494198e-01	8.493659e-01	8.493102e-01	8.492346e-01
6.646464285718962e-03	8.494168e-01	8.493671e-01	8.493156e-01	8.492427e-01
6.648950000004683e-03	8.494126e-01	8.493673e-01	8.493201e-01	8.492501e-01
6.649650000004685e-03	8.494110e-01	8.493671e-01	8.493212e-01	8.492520e-01
6.650350000004687e-03	8.494094e-01	8.493668e-01	8.493222e-01	8.492539e-01
6.651050000004688e-03	8.494076e-01	8.493664e-01	8.493231e-01	8.492556e-01
6.651750000004690e-03	8.494058e-01	8.493659e-01	8.493239e-01	8.492574e-01
6.652450000004692e-03	8.494038e-01	8.493653e-01	8.493247e-01	8.492590e-01
6.653150000004694e-03	8.494017e-01	8.493646e-01	8.493254e-01	8.492606e-01
6.653850000004696e-03	8.493994e-01	8.493637e-01	8.493260e-01	8.492622e-01
6.653950000004696e-03	8.493991e-01	8.493636e-01	8.493261e-01	8.492624e-01
6.654707142861841e-03	8.493965e-01	8.493626e-01	8.493266e-01	8.492640e-01
6.655464285718986e-03	8.493938e-01	8.493614e-01	8.493270e-01	8.492655e-01
6.656221428576132e-03	8.493909e-01	8.493601e-01	8.493273e-01	8.492669e-01
6.656978571433276e-03	8.493879e-01	8.493587e-01	8.493275e-01	8.492682e-01
6.657735714290421e-03	8.493848e-01	8.493571e-01	8.493277e-01	8.492694e-01
6.658492857147566e-03	8.493816e-01	8.493555e-01	8.493277e-01	8.492706e-01
6.659250000004711e-03	8.493782e-01	8.493537e-01	8.493276e-01	8.492717e-01
6.660392857147571e-03	8.493730e-01	8.493507e-01	8.493273e-01	8.492731e-01
6.661535714290431e-03	8.493675e-01	8.493474e-01	8.493267e-01	8.492743e-01
6.662678571433291e-03	8.493617e-01	8.493438e-01	8.493258e-01	8.492753e-01
