time	V(in)	V(q)
0.000000000000000e+00	0.000000e+00	0.000000e+00
9.999999960041972e-13	6.283185e-11	0.000000e+00
1.999999992008394e-12	1.256637e-10	1.569227e-18
3.999999984016789e-12	2.513274e-10	1.150819e-17
7.999999968033578e-12	5.026548e-10	4.917541e-17
9.369142819705613e-09	5.886805e-07	6.440478e-11
1.873028563944319e-08	1.176858e-06	2.581732e-10
2.809142845918077e-08	1.765036e-06	5.813053e-10
3.745257127891835e-08	2.353214e-06	1.033801e-09
4.681371409865593e-08	2.941392e-06	1.615660e-09
5.617485691839351e-08	3.529570e-06	2.326884e-09
6.553599973813107e-08	4.117748e-06	3.167470e-09
1.310719994762621e-07	8.235496e-06	1.389380e-08
2.310719994762621e-07	1.451868e-05	5.528007e-08
3.310719994762621e-07	2.080187e-05	1.443657e-07
5.310719994762621e-07	3.336824e-05	5.080065e-07
7.310719994762621e-07	4.593461e-05	1.137198e-06
1.031071999476262e-06	6.478417e-05	2.600485e-06
1.331071999476262e-06	8.363372e-05	4.714354e-06
1.688214856619118e-06	1.060737e-04	8.614044e-06
2.045357713761975e-06	1.285136e-04	1.363341e-05
2.402500570904832e-06	1.509536e-04	1.977245e-05
2.759643428047689e-06	1.733935e-04	2.703116e-05
3.116786285190546e-06	1.958335e-04	3.540954e-05
3.473929142333403e-06	2.182734e-04	4.490760e-05
3.831071999476259e-06	2.407134e-04	5.552533e-05
4.288214856619115e-06	2.694365e-04	7.111155e-05
4.745357713761973e-06	2.981596e-04	8.981789e-05
5.202500570904829e-06	3.268827e-04	1.116444e-04
5.659643428047686e-06	3.556059e-04	1.365910e-04
6.116786285190542e-06	3.843290e-04	1.646577e-04
6.573929142333400e-06	4.130521e-04	1.958445e-04
7.031071999476255e-06	4.417753e-04	2.301515e-04
7.531071999476258e-06	4.731912e-04	2.716878e-04
8.031071999476261e-06	5.046071e-04	3.196081e-04
8.531071999476265e-06	5.360231e-04	3.739125e-04
9.031071999476268e-06	5.674390e-04	4.346008e-04
9.531071999476270e-06	5.988549e-04	5.016732e-04
1.003107199947627e-05	6.302708e-04	5.751296e-04
1.053107199947628e-05	6.616868e-04	6.549700e-04
1.105964342804771e-05	6.948979e-04	7.473252e-04
1.158821485661914e-05	7.281090e-04	8.523759e-04
1.211678628519057e-05	7.613201e-04	9.701221e-04
1.264535771376201e-05	7.945312e-04	1.100564e-03
1.317392914233344e-05	8.277423e-04	1.243701e-03
1.370250057090487e-05	8.609535e-04	1.399534e-03
1.423107199947630e-05	8.941646e-04	1.568062e-03
1.477392914233344e-05	9.282733e-04	1.756560e-03
1.531678628519058e-05	9.623820e-04	1.969455e-03
1.585964342804772e-05	9.964907e-04	2.206747e-03
1.640250057090487e-05	1.030599e-03	2.468434e-03
1.694535771376200e-05	1.064708e-03	2.754518e-03
1.748821485661915e-05	1.098817e-03	3.064998e-03
1.803107199947628e-05	1.132926e-03	3.399875e-03
1.858821485661914e-05	1.167932e-03	3.773169e-03
1.914535771376199e-05	1.202938e-03	4.194029e-03
1.970250057090484e-05	1.237945e-03	4.662457e-03
2.025964342804769e-05	1.272951e-03	5.178452e-03
2.081678628519054e-05	1.307957e-03	5.742014e-03
2.137392914233340e-05	1.342963e-03	6.353143e-03
2.193107199947625e-05	1.377970e-03	7.011839e-03
2.248821485661910e-05	1.412976e-03	7.727026e-03
2.304535771376195e-05	1.447982e-03	8.530900e-03
2.360250057090480e-05	1.482989e-03	9.423459e-03
2.415964342804766e-05	1.517995e-03	1.040470e-02
2.471678628519051e-05	1.553001e-03	1.147464e-02
2.527392914233336e-05	1.588008e-03	1.263325e-02
2.583107199947621e-05	1.623014e-03	1.388056e-02
2.640250057090478e-05	1.658918e-03	1.526748e-02
2.697392914233334e-05	1.694822e-03	1.682961e-02
2.754535771376191e-05	1.730726e-03	1.856694e-02
2.811678628519047e-05	1.766630e-03	2.047947e-02
2.868821485661904e-05	1.802533e-03	2.256721e-02
2.925964342804761e-05	1.838437e-03	2.483014e-02
2.983107199947617e-05	1.874341e-03	2.726828e-02
3.040250057090475e-05	1.910245e-03	2.991533e-02
3.097392914233333e-05	1.946149e-03	3.289236e-02
3.154535771376192e-05	1.982053e-03	3.619939e-02
3.211678628519050e-05	2.017957e-03	3.983641e-02
3.268821485661908e-05	2.053861e-03	4.380342e-02
3.325964342804767e-05	2.089765e-03	4.810041e-02
3.383107199947625e-05	2.125669e-03	5.272740e-02
3.441678628519055e-05	2.162470e-03	5.787649e-02
3.500250057090485e-05	2.199272e-03	6.367278e-02
3.558821485661915e-05	2.236073e-03	7.011627e-02
3.617392914233345e-05	2.272874e-03	7.720697e-02
3.675964342804775e-05	2.309676e-03	8.494487e-02
3.734535771376205e-05	2.346477e-03	9.332998e-02
3.793107199947635e-05	2.383279e-03	1.023623e-01
3.853107199947636e-05	2.420978e-03	1.124478e-01
3.913107199947638e-05	2.458677e-03	1.237369e-01
3.973107199947639e-05	2.496376e-03	1.362296e-01
4.033107199947641e-05	2.534075e-03	1.499259e-01
4.093107199947642e-05	2.571774e-03	1.648257e-01
4.153107199947643e-05	2.609473e-03	1.809292e-01
4.213107199947645e-05	2.647173e-03	1.982362e-01
4.265964342804789e-05	2.680384e-03	2.148674e-01
4.318821485661933e-05	2.713595e-03	2.327805e-01
4.371678628519077e-05	2.746806e-03	2.519755e-01
4.424535771376222e-05	2.780017e-03	2.724525e-01
4.477392914233366e-05	2.813228e-03	2.942114e-01
4.530250057090510e-05	2.846439e-03	3.172523e-01
4.583107199947654e-05	2.879650e-03	3.415751e-01
4.630250057090513e-05	2.909271e-03	3.645974e-01
4.677392914233370e-05	2.938892e-03	3.882790e-01
4.724535771376229e-05	2.968512e-03	4.126198e-01
4.771678628519087e-05	2.998133e-03	4.376198e-01
4.818821485661945e-05	3.027754e-03	4.632790e-01
4.865964342804804e-05	3.057374e-03	4.895974e-01
4.913107199947662e-05	3.086995e-03	5.165751e-01
4.964535771376235e-05	3.119309e-03	5.463832e-01
5.015964342804807e-05	3.151622e-03	5.755039e-01
5.067392914233380e-05	3.183936e-03	6.039373e-01
5.118821485661953e-05	3.216249e-03	6.316833e-01
5.170250057090526e-05	3.248563e-03	6.587419e-01
5.221678628519098e-05	3.280876e-03	6.851132e-01
5.273107199947671e-05	3.313189e-03	7.107972e-01
5.313107199947672e-05	3.338322e-03	7.294522e-01
5.353107199947673e-05	3.363455e-03	7.471870e-01
5.393107199947674e-05	3.388588e-03	7.640015e-01
5.433107199947675e-05	3.413720e-03	7.798959e-01
5.473107199947676e-05	3.438853e-03	7.948699e-01
5.513107199947677e-05	3.463986e-03	8.089238e-01
5.553107199947678e-05	3.489118e-03	8.220574e-01
5.625964342804822e-05	3.534896e-03	8.430392e-01
5.698821485661967e-05	3.580673e-03	8.619136e-01
5.771678628519111e-05	3.626451e-03	8.786806e-01
5.844535771376256e-05	3.672228e-03	8.933402e-01
5.917392914233401e-05	3.718005e-03	9.058924e-01
5.990250057090546e-05	3.763783e-03	9.163372e-01
6.063107199947690e-05	3.809560e-03	9.246746e-01
6.105964342804834e-05	3.836488e-03	9.292779e-01
6.148821485661978e-05	3.863416e-03	9.335649e-01
6.191678628519121e-05	3.890344e-03	9.375356e-01
6.234535771376265e-05	3.917272e-03	9.411899e-01
6.277392914233409e-05	3.944200e-03	9.445279e-01
6.320250057090552e-05	3.971128e-03	9.475495e-01
6.363107199947697e-05	3.998056e-03	9.502549e-01
6.405964342804841e-05	4.024983e-03	9.527684e-01
6.448821485661984e-05	4.051911e-03	9.551195e-01
6.491678628519128e-05	4.078839e-03	9.573079e-01
6.534535771376272e-05	4.105767e-03	9.593339e-01
6.577392914233417e-05	4.132695e-03	9.611973e-01
6.620250057090560e-05	4.159623e-03	9.628982e-01
6.663107199947704e-05	4.186551e-03	9.644365e-01
6.708821485661990e-05	4.215274e-03	9.659646e-01
6.754535771376278e-05	4.243997e-03	9.673966e-01
6.800250057090564e-05	4.272720e-03	9.687326e-01
6.845964342804852e-05	4.301443e-03	9.699725e-01
6.891678628519138e-05	4.330166e-03	9.711163e-01
6.937392914233425e-05	4.358889e-03	9.721641e-01
6.983107199947712e-05	4.387612e-03	9.731159e-01
7.033107199947713e-05	4.419028e-03	9.740866e-01
7.083107199947714e-05	4.450443e-03	9.749972e-01
7.133107199947715e-05	4.481859e-03	9.758478e-01
7.183107199947716e-05	4.513275e-03	9.766383e-01
7.233107199947718e-05	4.544691e-03	9.773687e-01
7.283107199947719e-05	4.576107e-03	9.780390e-01
7.333107199947720e-05	4.607523e-03	9.786493e-01
7.388821485662007e-05	4.642529e-03	9.792835e-01
7.444535771376294e-05	4.677535e-03	9.798784e-01
7.500250057090581e-05	4.712542e-03	9.804342e-01
7.555964342804869e-05	4.747548e-03	9.809507e-01
7.611678628519155e-05	4.782554e-03	9.814280e-01
7.667392914233443e-05	4.817560e-03	9.818660e-01
7.723107199947730e-05	4.852566e-03	9.822649e-01
7.785964342804874e-05	4.892061e-03	9.826841e-01
7.848821485662018e-05	4.931555e-03	9.830770e-01
7.911678628519163e-05	4.971049e-03	9.834436e-01
7.974535771376307e-05	5.010543e-03	9.837839e-01
8.037392914233452e-05	5.050037e-03	9.840978e-01
8.100250057090596e-05	5.089532e-03	9.843855e-01
8.163107199947740e-05	5.129026e-03	9.846467e-01
8.204535771376313e-05	5.155056e-03	9.848112e-01
8.245964342804886e-05	5.181087e-03	9.849688e-01
8.287392914233458e-05	5.207117e-03	9.851195e-01
8.328821485662029e-05	5.233147e-03	9.852635e-01
8.370250057090602e-05	5.259177e-03	9.854005e-01
8.411678628519175e-05	5.285207e-03	9.855308e-01
8.453107199947747e-05	5.311238e-03	9.856542e-01
8.483107199947748e-05	5.330087e-03	9.857122e-01
8.557392914233465e-05	5.376762e-03	9.859134e-01
8.631678628519180e-05	5.423437e-03	9.861017e-01
8.705964342804897e-05	5.470112e-03	9.862771e-01
8.780250057090612e-05	5.516787e-03	9.864395e-01
8.854535771376329e-05	5.563462e-03	9.865889e-01
8.928821485662045e-05	5.610137e-03	9.867253e-01
9.003107199947761e-05	5.656811e-03	9.868488e-01
9.084535771376334e-05	5.707974e-03	9.869745e-01
9.165964342804908e-05	5.759137e-03	9.870918e-01
9.247392914233482e-05	5.810300e-03	9.872009e-01
9.328821485662055e-05	5.861463e-03	9.873016e-01
9.410250057090627e-05	5.912626e-03	9.873941e-01
9.491678628519201e-05	5.963789e-03	9.874783e-01
9.573107199947775e-05	6.014952e-03	9.875541e-01
9.641678628519205e-05	6.058036e-03	9.876142e-01
9.710250057090635e-05	6.101121e-03	9.876710e-01
9.778821485662065e-05	6.144205e-03	9.877244e-01
9.847392914233496e-05	6.187290e-03	9.877744e-01
9.915964342804926e-05	6.230374e-03	9.878212e-01
9.984535771376356e-05	6.273459e-03	9.878646e-01
1.005310719994779e-04	6.316543e-03	9.879047e-01
1.006310719994779e-04	6.322826e-03	9.879104e-01
1.015453577137636e-04	6.380272e-03	9.879593e-01
1.024596434280493e-04	6.437718e-03	9.880049e-01
1.033739291423351e-04	6.495164e-03	9.880472e-01
1.042882148566208e-04	6.552610e-03	9.880862e-01
1.052025005709065e-04	6.610056e-03	9.881218e-01
1.061167862851923e-04	6.667502e-03	9.881541e-01
1.070310719994780e-04	6.724948e-03	9.881831e-01
1.079882148566209e-04	6.785087e-03	9.882112e-01
1.089453577137638e-04	6.845225e-03	9.882374e-01
1.099025005709067e-04	6.905364e-03	9.882617e-01
1.108596434280495e-04	6.965503e-03	9.882841e-01
1.118167862851924e-04	7.025642e-03	9.883046e-01
1.127739291423353e-04	7.085780e-03	9.883232e-01
1.137310719994782e-04	7.145919e-03	9.883398e-01
1.147310719994782e-04	7.208750e-03	9.883560e-01
1.157310719994782e-04	7.271582e-03	9.883710e-01
1.167310719994783e-04	7.334413e-03	9.883850e-01
1.177310719994783e-04	7.397245e-03	9.883979e-01
1.187310719994783e-04	7.460076e-03	9.884097e-01
1.197310719994783e-04	7.522907e-03	9.884205e-01
1.207310719994784e-04	7.585739e-03	9.884301e-01
1.217739291423355e-04	7.651263e-03	9.884396e-01
1.228167862851927e-04	7.716787e-03	9.884484e-01
1.238596434280499e-04	7.782311e-03	9.884566e-01
1.249025005709070e-04	7.847835e-03	9.884642e-01
1.259453577137642e-04	7.913359e-03	9.884712e-01
1.269882148566214e-04	7.978884e-03	9.884777e-01
1.280310719994785e-04	8.044408e-03	9.884835e-01
1.291596434280500e-04	8.115317e-03	9.884894e-01
1.302882148566215e-04	8.186227e-03	9.884950e-01
1.314167862851929e-04	8.257136e-03	9.885003e-01
1.325453577137643e-04	8.328046e-03	9.885052e-01
1.336739291423358e-04	8.398956e-03	9.885098e-01
1.348025005709073e-04	8.469866e-03	9.885140e-01
1.359310719994787e-04	8.540776e-03	9.885179e-01
1.372310719994788e-04	8.622456e-03	9.885221e-01
1.385310719994788e-04	8.704136e-03	9.885262e-01
1.398310719994788e-04	8.785817e-03	9.885300e-01
1.411310719994788e-04	8.867497e-03	9.885337e-01
1.424310719994789e-04	8.949178e-03	9.885371e-01
1.437310719994789e-04	9.030859e-03	9.885404e-01
1.450310719994789e-04	9.112540e-03	9.885434e-01
1.466739291423361e-04	9.215762e-03	9.885470e-01
1.483167862851933e-04	9.318985e-03	9.885506e-01
1.499596434280505e-04	9.422207e-03	9.885540e-01
1.516025005709077e-04	9.525430e-03	9.885573e-01
1.532453577137648e-04	9.628652e-03	9.885605e-01
1.548882148566220e-04	9.731875e-03	9.885636e-01
1.565310719994792e-04	9.835098e-03	9.885665e-01
1.589167862851936e-04	9.984995e-03	9.885707e-01
1.613025005709079e-04	1.013489e-02	9.885748e-01
1.636882148566223e-04	1.028479e-02	9.885788e-01
1.660739291423366e-04	1.043469e-02	9.885827e-01
1.684596434280509e-04	1.058458e-02	9.885866e-01
1.708453577137653e-04	1.073448e-02	9.885904e-01
1.732310719994796e-04	1.088438e-02	9.885941e-01
1.774739291423369e-04	1.115096e-02	9.886007e-01
1.817167862851941e-04	1.141754e-02	9.886073e-01
1.859596434280514e-04	1.168412e-02	9.886138e-01
1.902025005709086e-04	1.195070e-02	9.886203e-01
1.944453577137659e-04	1.221729e-02	9.886268e-01
1.986882148566231e-04	1.248387e-02	9.886332e-01
2.029310719994804e-04	1.275045e-02	9.886396e-01
2.030310719994804e-04	1.275673e-02	9.886397e-01
3.054310719994828e-04	1.919051e-02	9.887931e-01
4.078310719994853e-04	2.562408e-02	9.889442e-01
5.102310719994759e-04	3.205739e-02	9.890932e-01
6.126310719994229e-04	3.849037e-02	9.892401e-01
7.150310719993699e-04	4.492295e-02	9.893849e-01
8.174310719993169e-04	5.135506e-02	9.895276e-01
9.198310719992638e-04	5.778665e-02	9.896683e-01
1.022231071999260e-03	6.421763e-02	9.898070e-01
1.124631071999318e-03	7.064795e-02	9.899437e-01
1.227031071999376e-03	7.707755e-02	9.900784e-01
1.329431071999434e-03	8.350634e-02	9.902114e-01
1.431831071999492e-03	8.993427e-02	9.903423e-01
1.534231071999550e-03	9.636126e-02	9.904715e-01
1.636631071999608e-03	1.027873e-01	9.905988e-01
1.739031071999666e-03	1.092122e-01	9.907243e-01
1.841431071999724e-03	1.156360e-01	9.908481e-01
1.943831071999782e-03	1.220586e-01	9.909700e-01
2.046231071999638e-03	1.284800e-01	9.910903e-01
2.148631071999474e-03	1.349000e-01	9.912089e-01
2.251031071999310e-03	1.413186e-01	9.913258e-01
2.353431071999146e-03	1.477357e-01	9.914411e-01
2.455831071998982e-03	1.541514e-01	9.915547e-01
2.558231071998818e-03	1.605654e-01	9.916667e-01
2.660631071998654e-03	1.669778e-01	9.917772e-01
2.763031071998490e-03	1.733884e-01	9.918861e-01
2.865431071998326e-03	1.797973e-01	9.919935e-01
2.967831071998162e-03	1.862043e-01	9.920994e-01
3.070231071997998e-03	1.926093e-01	9.922038e-01
3.172631071997834e-03	1.990124e-01	9.923067e-01
3.275031071997670e-03	2.054134e-01	9.924082e-01
3.377431071997506e-03	2.118123e-01	9.925083e-01
3.479831071997342e-03	2.182090e-01	9.926069e-01
3.582231071997178e-03	2.246034e-01	9.927042e-01
3.684631071997014e-03	2.309955e-01	9.928002e-01
3.787031071996850e-03	2.373852e-01	9.928948e-01
3.889431071996686e-03	2.437725e-01	9.929880e-01
3.991831071996892e-03	2.501572e-01	9.930800e-01
4.094231071997172e-03	2.565394e-01	9.931707e-01
4.196631071997452e-03	2.629189e-01	9.932601e-01
4.299031071997732e-03	2.692957e-01	9.933483e-01
4.401431071998013e-03	2.756696e-01	9.934353e-01
4.503831071998293e-03	2.820408e-01	9.935210e-01
4.606231071998573e-03	2.884090e-01	9.936055e-01
4.708631071998853e-03	2.947742e-01	9.936889e-01
4.811031071999133e-03	3.011364e-01	9.937711e-01
4.913431071999413e-03	3.074955e-01	9.938521e-01
5.015831071999693e-03	3.138513e-01	9.939321e-01
5.118231071999973e-03	3.202040e-01	9.940109e-01
5.220631072000253e-03	3.265533e-01	9.940886e-01
5.323031072000533e-03	3.328992e-01	9.941654e-01
5.425431072000813e-03	3.392417e-01	9.942409e-01
5.527831072001093e-03	3.455807e-01	9.943155e-01
5.630231072001373e-03	3.519161e-01	9.943890e-01
5.732631072001653e-03	3.582479e-01	9.944615e-01
5.835031072001933e-03	3.645759e-01	9.945330e-01
5.937431072002213e-03	3.709002e-01	9.946035e-01
6.039831072002493e-03	3.772207e-01	9.946731e-01
6.142231072002773e-03	3.835372e-01	9.947416e-01
6.244631072003053e-03	3.898498e-01	9.948093e-01
6.347031072003333e-03	3.961583e-01	9.948760e-01
6.449431072003613e-03	4.024628e-01	9.949417e-01
6.551831072003893e-03	4.087630e-01	9.950066e-01
6.654231072004173e-03	4.150591e-01	9.950706e-01
6.756631072004454e-03	4.213508e-01	9.951336e-01
6.859031072004734e-03	4.276382e-01	9.951959e-01
6.961431072005014e-03	4.339212e-01	9.952573e-01
7.063831072005294e-03	4.401996e-01	9.953178e-01
7.166231072005574e-03	4.464735e-01	9.953774e-01
7.268631072005854e-03	4.527428e-01	9.954363e-01
7.371031072006134e-03	4.590074e-01	9.954944e-01
7.473431072006414e-03	4.652673e-01	9.955516e-01
7.575831072006694e-03	4.715224e-01	9.956081e-01
7.678231072006974e-03	4.777725e-01	9.956638e-01
7.780631072007254e-03	4.840177e-01	9.957187e-01
7.883031072006922e-03	4.902579e-01	9.957729e-01
7.985431072006314e-03	4.964931e-01	9.958264e-01
8.087831072005705e-03	5.027231e-01	9.958791e-01
8.190231072005097e-03	5.089479e-01	9.959310e-01
8.292631072004489e-03	5.151674e-01	9.959823e-01
8.395031072003881e-03	5.213816e-01	9.960329e-01
8.497431072003273e-03	5.275904e-01	9.960828e-01
8.599831072002665e-03	5.337937e-01	9.961320e-01
8.702231072002057e-03	5.399916e-01	9.961805e-01
8.804631072001448e-03	5.461838e-01	9.962284e-01
8.907031072000840e-03	5.523704e-01	9.962756e-01
9.009431072000232e-03	5.585513e-01	9.963222e-01
9.111831071999624e-03	5.647263e-01	9.963681e-01
9.214231071999016e-03	5.708956e-01	9.964134e-01
9.316631071998408e-03	5.770589e-01	9.964581e-01
9.419031071997800e-03	5.832162e-01	9.965022e-01
9.521431071997192e-03	5.893676e-01	9.965456e-01
9.623831071996583e-03	5.955127e-01	9.965885e-01
9.726231071995975e-03	6.016518e-01	9.966308e-01
9.828631071995367e-03	6.077846e-01	9.966726e-01
9.931031071994759e-03	6.139112e-01	9.967138e-01
1.003343107199415e-02	6.200314e-01	9.967543e-01
1.013583107199354e-02	6.261451e-01	9.967944e-01
1.023823107199293e-02	6.322525e-01	9.968339e-01
1.034063107199233e-02	6.383532e-01	9.968728e-01
1.044303107199172e-02	6.444473e-01	9.969113e-01
1.054543107199111e-02	6.505348e-01	9.969493e-01
1.064783107199050e-02	6.566156e-01	9.969866e-01
1.075023107198989e-02	6.626894e-01	9.970236e-01
1.085263107198929e-02	6.687565e-01	9.970599e-01
1.095503107198868e-02	6.748167e-01	9.970959e-01
1.105743107198807e-02	6.808699e-01	9.971313e-01
1.115983107198746e-02	6.869161e-01	9.971663e-01
1.126223107198685e-02	6.929551e-01	9.972007e-01
1.136463107198625e-02	6.989869e-01	9.972348e-01
1.146703107198564e-02	7.050115e-01	9.972683e-01
1.156943107198503e-02	7.110289e-01	9.973014e-01
1.167183107198442e-02	7.170388e-01	9.973341e-01
1.177423107198381e-02	7.230414e-01	9.973663e-01
1.187663107198320e-02	7.290365e-01	9.973981e-01
1.197903107198260e-02	7.350240e-01	9.974294e-01
1.208143107198199e-02	7.410039e-01	9.974604e-01
1.218383107198138e-02	7.469761e-01	9.974909e-01
1.228623107198077e-02	7.529406e-01	9.975210e-01
1.238863107198016e-02	7.588973e-01	9.975507e-01
1.249103107197956e-02	7.648462e-01	9.975800e-01
1.259343107197895e-02	7.707871e-01	9.976089e-01
1.269583107197834e-02	7.767201e-01	9.976375e-01
1.279823107197773e-02	7.826450e-01	9.976656e-01
1.290063107197712e-02	7.885619e-01	9.976934e-01
1.300303107197651e-02	7.944705e-01	9.977207e-01
1.310543107197591e-02	8.003710e-01	9.977478e-01
1.320783107197530e-02	8.062632e-01	9.977744e-01
1.331023107197469e-02	8.121470e-01	9.978008e-01
1.341263107197408e-02	8.180224e-01	9.978267e-01
1.351503107197347e-02	8.238894e-01	9.978523e-01
1.361743107197287e-02	8.297478e-01	9.978776e-01
1.371983107197226e-02	8.355976e-01	9.979025e-01
1.382223107197165e-02	8.414388e-01	9.979271e-01
1.392463107197104e-02	8.472713e-01	9.979514e-01
1.402703107197043e-02	8.530951e-01	9.979753e-01
1.412943107196983e-02	8.589099e-01	9.979990e-01
1.423183107196922e-02	8.647159e-01	9.980223e-01
1.433423107196861e-02	8.705130e-01	9.980453e-01
1.443663107196800e-02	8.763011e-01	9.980680e-01
1.453903107196739e-02	8.820800e-01	9.980904e-01
1.464143107196678e-02	8.878499e-01	9.981126e-01
1.474383107196618e-02	8.936105e-01	9.981344e-01
1.484623107196557e-02	8.993619e-01	9.981559e-01
1.494863107196496e-02	9.051040e-01	9.981772e-01
1.505103107196435e-02	9.108368e-01	9.981981e-01
1.515343107196374e-02	9.165601e-01	9.982188e-01
1.525583107196314e-02	9.222739e-01	9.982392e-01
1.535823107196253e-02	9.279782e-01	9.982594e-01
1.546063107196192e-02	9.336728e-01	9.982792e-01
